Using: /usr/local/apps/synopsys/current_hspice/hspice/linux/hspice hw2.sp
 ****** HSPICE -- F-2011.09-SP2 32-BIT (Feb 27 2012) linux ******               
  Copyright (C) 2011 Synopsys, Inc. All Rights Reserved.                        
  Unpublished-rights reserved under US copyright laws.
  This program is protected by law and is subject to the
  terms and conditions of the license agreement from Synopsys.
  Use of this program is your acceptance to be bound by the
  license agreement. HSPICE is the trademark of Synopsys, Inc.
  Input File: hw2.sp                                                            
  Command line options: hw2.sp
 lic:  
 lic: FLEXlm: v10.8 
 lic: USER:   goynese              HOSTNAME: kec1130-14.engr.oregonstate.edu 
 lic: HOSTID: 24be0511c109         PID:      8954 
 lic: Using FLEXlm license file: 
 lic: 7188@license.eecs.oregonstate.edu 
 lic: Checkout 1 hspice 
 lic: License/Maintenance for hspice will expire on 11-aug-2014/2013.03 
 lic: 6(in_use)/50(total) FLOATING license(s) on SERVER license.eecs.oregonstate
 lic:   
 Init: read install configuration file: /usr/local/apps/synopsys/current_hspice/hspice/meta.cfg
1****** HSPICE -- F-2011.09-SP2 32-BIT (Feb 27 2012) linux ******               
 ******  
 .title nmos

  ******  mos   model parameters tnom=  25.000 temp=  25.000 *****
 ***************************************************************************
 ***        model parameters  model name:   0:n_18     model type:nmos   ***
 ***************************************************************************

   *** general parameters ***
    deriv=   0.           

   ***  level 49  model parameters  ***

      hspver=    2006.03               level=         49         
     version=        3.1            paramchk=          0         
      apwarn=          1                lite=          0         
      vgslim=          0             binUnit=          1         
      capMod=          2               xpart=        0.5         
      mobMod=          1              nqsMod=          0         
      stiMod=          0                 elm=          5         
    sfvtflag=          0                 tox=    4.1e-09 meter   
          xj=      1e-07 meter       binflag=          0         
        lmin=          0 meter          lmax=          0 meter   
        wmin=          0 meter          wmax=          0 meter   
        lref=          0 meter          wref=          0 meter   
        lint=7.65986e-09 meter          wint=          0 meter   
       lmult=          1               wmult=          1         
          ll=          0                 lln=          1         
          lw=          0                 lwn=          1         
         lwl=          0                  wl=          0         
         wln=          1                  ww=          0         
         wwn=          1                 wwl=          0         
         dwg=-1.17694e-08 m/V             dwb=1.96583e-08 m/V^1/2 
          xl=          0                  xw=     -1e-08         
          a0=          2                 ags=   0.428182 V^-1    
          b0=-4.43566e-09 meter            b1=     -1e-07 meter   
        keta=-0.00873409 V^-1           voff= -0.0909514 V       
       ngate=          0 cm^-3           vbx=          0 V       
         vbm=         -3 V                xt=   1.55e-07 meter   
        vth0=   0.376033 V               nch= 2.3549e+17 cm^-3   
        nsub=      6e+16 cm^-3           nlx=1.83658e-07 meter   
      gamma1=          0 V^-1/2       gamma2=          0 V^-1/2  
          k1=   0.598252 V^1/2            k2= 0.00204285         
          k3=      0.001                 k3b=    5.47338 V^-1    
          w0=      1e-07 meter          dvt0=    1.38283         
        dvt1=   0.374633                dvt2=  0.0524724 V^-1    
       dvt0w=          0 meter^-1      dvt1w=          0 meter^-1
       dvt2w=          0 V^-1           dsub= 0.00880778         
        eta0=  0.0029649                etab=9.02839e-05 V^-1    
          u0=    265.099 cm^2/V/sec         ua=-1.34288e-09 m/V     
          ub=2.21876e-18 (m/V)^2          uc=5.30227e-11 V^-1    
        vsat=      99674 m/sec            a1=0.000117788 v^-1    
          a2=          1               delta=       0.01 V       
        rdsw=        150 ohm-um         prwg=        0.5 V^-1    
        prwb=       -0.2 V^-1/2           wr=          1         
        pclm=   0.739383             pdiblc1=   0.240506         
     pdiblc2= 0.00238467             pdiblcb=       -0.1 V^-1    
      pscbe1=2.25061e+09 V/m          pscbe2=5.50405e-09 V/m     
       drout=   0.810147                pvag= 0.00820885         
     nfactor=    2.47421                cdsc=    0.00024 f/m^2   
       cdscb=          0 f/V/m^2       cdscd=          0 f/V/m^2 
         cit=          0 f/m^2        alpha0=          0 m/V     
       beta0=         30 V               dlc=7.65986e-09 meter   
         dwc=          0 meter           clc=      1e-07 meter   
         cle=        0.6                cgso=   7.68e-10 f/m     
        cgdo=   7.68e-10 f/m            cgbo=      1e-12 f/m     
        cgsl=          0 f/m            cgdl=          0 f/m     
      ckappa=        0.6                  cf=          0 f/m     
        tnom=     300.15 K               kt1=      -0.11 V       
        kt1l=          0                 kt2=      0.022         
         ute=       -1.5                 ua1=   4.31e-09 m/V     
         ub1=  -7.61e-18 (m/V)^2         uc1=   -5.6e-11 m/V^2   
          at=      33000 m/s             prt=          0         
         using Berkeley noise model       noiMod=          1         
        noia=      1e+20                noib=      50000         
        noic=   -1.4e-12                  em=    4.1e+07         
          ef=          1                  af=          1         
          kf=          0              gdsnoi=-1.23457e-29         
         using Hspice diodes            using ACM 
         acm=         0                 hdif=         0 meter    
        ldif=         0 meter             js=         0 amp/m^2  
         jsw=         0 amp/m            xti=         0          
           n=         1                   cj=0.00096236 f/m^2    
          mj=  0.380501                   pb=       0.8 V        
        cjsw=2.37186e-10 f/m             mjsw=  0.107791          
         php=       0.8 V               pbsw (not used)           
      cjgate=2.37186e-10 f/m            cjswg (not used)           
       mjswg (not used)                 pbswg (not used)           
       lketa=-0.00944713               wketa= 0.00500085         
       pketa=-0.00308008               pvth0=-0.000919017         
         pk2=0.000320258               peta0=9.33065e-05         
         pu0=    32.7094                 pua=1.35883e-10         
       pvsat=    2004.06               prdsw=         -5         
 ***************************************************************************
 ***        model parameters  model name:   0:p_18     model type:pmos   ***
 ***************************************************************************

   *** general parameters ***
    deriv=   0.           

   ***  level 49  model parameters  ***

      hspver=    2006.03               level=         49         
     version=        3.1            paramchk=          0         
      apwarn=          1                lite=          0         
      vgslim=          0             binUnit=          1         
      capMod=          2               xpart=        0.5         
      mobMod=          1              nqsMod=          0         
      stiMod=          0                 elm=          5         
    sfvtflag=          0                 tox=    4.1e-09 meter   
          xj=      1e-07 meter       binflag=          0         
        lmin=          0 meter          lmax=          0 meter   
        wmin=          0 meter          wmax=          0 meter   
        lref=          0 meter          wref=          0 meter   
        lint=2.40594e-08 meter          wint=          0 meter   
       lmult=          1               wmult=          1         
          ll=          0                 lln=          1         
          lw=          0                 lwn=          1         
         lwl=          0                  wl=          0         
         wln=          1                  ww=          0         
         wwn=          1                 wwl=          0         
         dwg=-4.41769e-08 m/V             dwb=6.97017e-09 m/V^1/2 
          xl=          0                  xw=     -1e-08         
          a0=    1.84138                 ags=   0.400689 V^-1    
          b0=7.65708e-07 meter            b1=2.52826e-06 meter   
        keta=  0.0145743 V^-1           voff= -0.0984894 V       
       ngate=          0 cm^-3           vbx=          0 V       
         vbm=         -3 V                xt=   1.55e-07 meter   
        vth0=  -0.404077 V               nch= 4.1589e+17 cm^-3   
        nsub=      6e+16 cm^-3           nlx=1.06879e-07 meter   
      gamma1=          0 V^-1/2       gamma2=          0 V^-1/2  
          k1=   0.583367 V^1/2            k2=  0.0301169         
          k3=          0                 k3b=    16.2021 V^-1    
          w0=      1e-06 meter          dvt0=   0.556918         
        dvt1=   0.246075                dvt2=        0.1 V^-1    
       dvt0w=          0 meter^-1      dvt1w=          0 meter^-1
       dvt2w=          0 V^-1           dsub=    1.02253         
        eta0=   0.152158                etab=  -0.099095 V^-1    
          u0=    116.046 cm^2/V/sec         ua=1.55704e-09 m/V     
          ub=      1e-21 (m/V)^2          uc=     -1e-10 V^-1    
        vsat=     199463 m/sec            a1=   0.373167 v^-1    
          a2=        0.3               delta=       0.01 V       
        rdsw=    287.511 ohm-um         prwg=        0.5 V^-1    
        prwb=  -0.135487 V^-1/2           wr=          1         
        pclm=     2.1661             pdiblc1=3.20891e-05         
     pdiblc2=  0.0164807             pdiblcb=     -0.001 V^-1    
      pscbe1=9.01974e+09 V/m          pscbe2=2.60511e-09 V/m     
       drout=          0                pvag=         15         
     nfactor=     1.8964                cdsc=    0.00024 f/m^2   
       cdscb=          0 f/V/m^2       cdscd=          0 f/V/m^2 
         cit=          0 f/m^2        alpha0=          0 m/V     
       beta0=         30 V               dlc=2.40594e-08 meter   
         dwc=          0 meter           clc=      1e-07 meter   
         cle=        0.6                cgso=   5.75e-10 f/m     
        cgdo=   5.75e-10 f/m            cgbo=      1e-12 f/m     
        cgsl=          0 f/m            cgdl=          0 f/m     
      ckappa=        0.6                  cf=          0 f/m     
        tnom=     300.15 K               kt1=      -0.11 V       
        kt1l=          0                 kt2=      0.022         
         ute=       -1.5                 ua1=   4.31e-09 m/V     
         ub1=  -7.61e-18 (m/V)^2         uc1=   -5.6e-11 m/V^2   
          at=      33000 m/s             prt=          0         
         using Berkeley noise model       noiMod=          1         
        noia=    9.9e+18                noib=       2400         
        noic=    1.4e-12                  em=    4.1e+07         
          ef=          1                  af=          1         
          kf=          0              gdsnoi=-1.23457e-29         
         using Hspice diodes            using ACM 
         acm=         0                 hdif=         0 meter    
        ldif=         0 meter             js=         0 amp/m^2  
         jsw=         0 amp/m            xti=         0          
           n=         1                   cj=0.00116394 f/m^2    
          mj=  0.419416                   pb=  0.865987 V        
        cjsw=1.65613e-10 f/m             mjsw=  0.368302          
         php=  0.865987 V               pbsw (not used)           
      cjgate=1.65613e-10 f/m            cjswg (not used)           
       mjswg (not used)                 pbswg (not used)           
       lketa=-0.00294233               wketa=  0.0266507         
       pketa=-0.00367958               pvth0= 0.00185699         
         pk2= 0.00155429               peta0=0.000100316         
         pu0=    -1.1074                 pua=-4.96912e-11         
         pub=      1e-21               pvsat=        -50         
       prdsw=   -1.14585         
 

  **warning** (hw2.sp:34) Unable to find referenced node vic; Output variable ignored. Specify a valid node.
  
      
 *****************************************************************
 ******  option summary
 ******
 runlvl  = 3         bypass  = 2         
1****** HSPICE -- F-2011.09-SP2 32-BIT (Feb 27 2012) linux ******               
 ******  
 .title nmos

  ******  operating point information tnom=  25.000 temp=  25.000 *****
 ***** operating point status is all       simulation time is     0.     
    node    =voltage      node    =voltage      node    =voltage

 +0:1       =   0.      0:2       =-500.0000m 0:a       =-303.2677m
 +0:b       = 489.1387m 0:vds     = 900.0000m 0:vi1     =-500.0000m
 +0:vi2     =-500.0000m 0:vout    = 489.1387m 0:vp      =-898.5954m
 +0:vss     =-900.0000m


 **** voltage sources

 subckt                                              
 element  0:vds      0:vic      0:vid      0:vss     
  volts    900.0000m -500.0000m    0.       900.0000m
  current -160.3229u    0.         0.      -160.3229u
  power    144.2906u    0.         0.       144.2906u

     total voltage source power dissipation=  288.5812u       watts



 **** resistors

 subckt             
 element  0:r1      
  r value    8.1000k
  v drop     1.2033 
  current  148.5516u
  power    178.7473u


 **** voltage-controlled voltage sources


 subckt                        
 element  0:e+       0:e-      
  volts      0.         0.     
  current    0.         0.     





 **** mosfets


 subckt                                                                    
 element  0:m1       0:m2       0:m3       0:m4       0:m5       0:m6      
 model    0:n_18     0:n_18     0:p_18     0:p_18     0:n_18     0:n_18    
 region       Cutoff     Cutoff     Cutoff     Cutoff     Linear   Saturati
  id         5.8857u    5.8857u   -5.8857u   -5.8857u   11.7713u  148.5516u
  ibs        0.         0.         0.         0.         0.         0.     
  ibd        0.         0.         0.         0.         0.         0.     
  vgs      398.5954m  398.5954m -410.8613m -410.8613m  596.7323m  596.7323m
  vds        1.3877     1.3877  -410.8613m -410.8613m    1.4046m  596.7323m
  vbs        0.         0.         0.         0.         0.         0.     
  vth      452.0595m  452.0595m -455.4840m -455.4840m  463.0058m  458.2686m
  vdsat     39.3312m   39.3312m  -44.3205m  -44.3205m  111.0001m  114.0173m
  vod      -53.4641m  -53.4641m   44.6227m   44.6227m  133.7266m  138.4637m
  beta      34.6823m   34.6823m   19.4627m   19.4627m   78.8195m   20.3799m
  gam eff  594.4451m  594.4451m  526.5434m  526.5434m  594.4564m  594.4303m
  gm       139.1355u  139.1355u  133.8913u  133.8913u  104.9303u    2.0415m
  gds        1.4784u    1.4784u    1.1323u    1.1323u    8.3233m   22.4676u
  gmb       41.6373u   41.6373u   44.4993u   44.4993u   30.5715u  570.7887u
  cdtot     95.3420f   95.3420f  174.7160f  174.7160f  457.6923f   58.4274f
  cgtot    182.3320f  182.3320f  313.6787f  313.6787f  749.9723f  171.3297f
  cstot    130.3535f  130.3535f  240.1832f  240.1832f  386.3641f  124.8754f
  cbtot    176.7281f  176.7281f  341.8517f  341.8517f  463.1738f  106.8589f
  cgs       83.3539f   83.3539f  156.7410f  156.7410f  432.9594f  136.8810f
  cgd       45.3822f   45.3822f   69.0056f   69.0056f  307.7441f   25.8282f



1****** HSPICE -- F-2011.09-SP2 32-BIT (Feb 27 2012) linux ******               
 ******  
 .title nmos

  ******  ac analysis tnom=  25.000 temp=  25.000 *****
 ***** operating point status is all       simulation time is     0.     

   *** source        0:vic =   -5.000E-01 ***

    node    =voltage      node    =voltage      node    =voltage

 +0:1       =   0.      0:2       =-500.0000m 0:a       =-303.2677m
 +0:b       = 489.1387m 0:vds     = 900.0000m 0:vi1     =-500.0000m
 +0:vi2     =-500.0000m 0:vout    = 489.1387m 0:vp      =-898.5954m
 +0:vss     =-900.0000m


 **** voltage sources

 subckt                                              
 element  0:vds      0:vic      0:vid      0:vss     
  volts    900.0000m -500.0000m    0.       900.0000m
  current -160.3229u    0.         0.      -160.3229u
  power    144.2906u    0.         0.       144.2906u

     total voltage source power dissipation=  288.5812u       watts



 **** resistors

 subckt             
 element  0:r1      
  r value    8.1000k
  v drop     1.2033 
  current  148.5516u
  power    178.7473u


 **** voltage-controlled voltage sources


 subckt                        
 element  0:e+       0:e-      
  volts      0.         0.     
  current    0.         0.     





 **** mosfets


 subckt                                                                    
 element  0:m1       0:m2       0:m3       0:m4       0:m5       0:m6      
 model    0:n_18     0:n_18     0:p_18     0:p_18     0:n_18     0:n_18    
 region       Cutoff     Cutoff     Cutoff     Cutoff     Linear   Saturati
  id         5.8857u    5.8857u   -5.8857u   -5.8857u   11.7713u  148.5516u
  ibs        0.         0.         0.         0.         0.         0.     
  ibd        0.         0.         0.         0.         0.         0.     
  vgs      398.5954m  398.5954m -410.8613m -410.8613m  596.7323m  596.7323m
  vds        1.3877     1.3877  -410.8613m -410.8613m    1.4046m  596.7323m
  vbs        0.         0.         0.         0.         0.         0.     
  vth      452.0595m  452.0595m -455.4840m -455.4840m  463.0058m  458.2686m
  vdsat     39.3312m   39.3312m  -44.3205m  -44.3205m  111.0001m  114.0173m
  vod      -53.4641m  -53.4641m   44.6227m   44.6227m  133.7266m  138.4637m
  beta      34.6823m   34.6823m   19.4627m   19.4627m   78.8195m   20.3799m
  gam eff  594.4451m  594.4451m  526.5434m  526.5434m  594.4564m  594.4303m
  gm       139.1355u  139.1355u  133.8913u  133.8913u  104.9303u    2.0415m
  gds        1.4784u    1.4784u    1.1323u    1.1323u    8.3233m   22.4676u
  gmb       41.6373u   41.6373u   44.4993u   44.4993u   30.5715u  570.7887u
  cdtot     95.3420f   95.3420f  174.7160f  174.7160f  457.6923f   58.4274f
  cgtot    182.3320f  182.3320f  313.6787f  313.6787f  749.9723f  171.3297f
  cstot    130.3535f  130.3535f  240.1832f  240.1832f  386.3641f  124.8754f
  cbtot    176.7281f  176.7281f  341.8517f  341.8517f  463.1738f  106.8589f
  cgs       83.3539f   83.3539f  156.7410f  156.7410f  432.9594f  136.8810f
  cgd       45.3822f   45.3822f   69.0056f   69.0056f  307.7441f   25.8282f




          ***** job concluded
1****** HSPICE -- F-2011.09-SP2 32-BIT (Feb 27 2012) linux ******               
 ******  
 .title nmos

  ******  ac analysis tnom=  25.000 temp=  25.000 *****
 ***** operating point status is all       simulation time is     0.     

   *** source        0:vic =   -4.000E-01 ***

    node    =voltage      node    =voltage      node    =voltage

 +0:1       =   0.      0:2       =-400.0000m 0:a       =-303.2677m
 +0:b       = 393.7559m 0:vds     = 900.0000m 0:vi1     =-400.0000m
 +0:vi2     =-400.0000m 0:vout    = 393.7559m 0:vp      =-888.9795m
 +0:vss     =-900.0000m


 **** voltage sources

 subckt                                              
 element  0:vds      0:vic      0:vid      0:vss     
  volts    900.0000m -400.0000m    0.       900.0000m
  current -236.6171u    0.         0.      -236.6171u
  power    212.9554u    0.         0.       212.9554u

