Using: /usr/local/apps/synopsys/current_hspice/hspice/linux/hspice nmos_diff_rload.sp
 ****** HSPICE -- F-2011.09-SP2 32-BIT (Feb 27 2012) linux ******               
  Copyright (C) 2011 Synopsys, Inc. All Rights Reserved.                        
  Unpublished-rights reserved under US copyright laws.
  This program is protected by law and is subject to the
  terms and conditions of the license agreement from Synopsys.
  Use of this program is your acceptance to be bound by the
  license agreement. HSPICE is the trademark of Synopsys, Inc.
  Input File: nmos_diff_rload.sp                                                
  Command line options: nmos_diff_rload.sp
 lic:  
 lic: FLEXlm: v10.8 
 lic: USER:   goynese              HOSTNAME: kec1130-14.engr.oregonstate.edu 
 lic: HOSTID: 24be0511c109         PID:      10248 
 lic: Using FLEXlm license file: 
 lic: 7188@license.eecs.oregonstate.edu 
 lic: Checkout 1 hspice 
 lic: License/Maintenance for hspice will expire on 11-aug-2014/2013.03 
 lic: 6(in_use)/50(total) FLOATING license(s) on SERVER license.eecs.oregonstate
 lic:   
 Init: read install configuration file: /usr/local/apps/synopsys/current_hspice/hspice/meta.cfg
1****** HSPICE -- F-2011.09-SP2 32-BIT (Feb 27 2012) linux ******               
 ******  
 nmos

  ******  mos   model parameters tnom=  25.000 temp=  25.000 *****
 ***************************************************************************
 ***        model parameters  model name:   0:n_18     model type:nmos   ***
 ***************************************************************************

   *** general parameters ***
    deriv=   0.           

   ***  level 49  model parameters  ***

      hspver=    2006.03               level=         49         
     version=        3.1            paramchk=          0         
      apwarn=          1                lite=          0         
      vgslim=          0             binUnit=          1         
      capMod=          2               xpart=        0.5         
      mobMod=          1              nqsMod=          0         
      stiMod=          0                 elm=          5         
    sfvtflag=          0                 tox=    4.1e-09 meter   
          xj=      1e-07 meter       binflag=          0         
        lmin=          0 meter          lmax=          0 meter   
        wmin=          0 meter          wmax=          0 meter   
        lref=          0 meter          wref=          0 meter   
        lint=7.65986e-09 meter          wint=          0 meter   
       lmult=          1               wmult=          1         
          ll=          0                 lln=          1         
          lw=          0                 lwn=          1         
         lwl=          0                  wl=          0         
         wln=          1                  ww=          0         
         wwn=          1                 wwl=          0         
         dwg=-1.17694e-08 m/V             dwb=1.96583e-08 m/V^1/2 
          xl=          0                  xw=     -1e-08         
          a0=          2                 ags=   0.428182 V^-1    
          b0=-4.43566e-09 meter            b1=     -1e-07 meter   
        keta=-0.00873409 V^-1           voff= -0.0909514 V       
       ngate=          0 cm^-3           vbx=          0 V       
         vbm=         -3 V                xt=   1.55e-07 meter   
        vth0=   0.376033 V               nch= 2.3549e+17 cm^-3   
        nsub=      6e+16 cm^-3           nlx=1.83658e-07 meter   
      gamma1=          0 V^-1/2       gamma2=          0 V^-1/2  
          k1=   0.598252 V^1/2            k2= 0.00204285         
          k3=      0.001                 k3b=    5.47338 V^-1    
          w0=      1e-07 meter          dvt0=    1.38283         
        dvt1=   0.374633                dvt2=  0.0524724 V^-1    
       dvt0w=          0 meter^-1      dvt1w=          0 meter^-1
       dvt2w=          0 V^-1           dsub= 0.00880778         
        eta0=  0.0029649                etab=9.02839e-05 V^-1    
          u0=    265.099 cm^2/V/sec         ua=-1.34288e-09 m/V     
          ub=2.21876e-18 (m/V)^2          uc=5.30227e-11 V^-1    
        vsat=      99674 m/sec            a1=0.000117788 v^-1    
          a2=          1               delta=       0.01 V       
        rdsw=        150 ohm-um         prwg=        0.5 V^-1    
        prwb=       -0.2 V^-1/2           wr=          1         
        pclm=   0.739383             pdiblc1=   0.240506         
     pdiblc2= 0.00238467             pdiblcb=       -0.1 V^-1    
      pscbe1=2.25061e+09 V/m          pscbe2=5.50405e-09 V/m     
       drout=   0.810147                pvag= 0.00820885         
     nfactor=    2.47421                cdsc=    0.00024 f/m^2   
       cdscb=          0 f/V/m^2       cdscd=          0 f/V/m^2 
         cit=          0 f/m^2        alpha0=          0 m/V     
       beta0=         30 V               dlc=7.65986e-09 meter   
         dwc=          0 meter           clc=      1e-07 meter   
         cle=        0.6                cgso=   7.68e-10 f/m     
        cgdo=   7.68e-10 f/m            cgbo=      1e-12 f/m     
        cgsl=          0 f/m            cgdl=          0 f/m     
      ckappa=        0.6                  cf=          0 f/m     
        tnom=     300.15 K               kt1=      -0.11 V       
        kt1l=          0                 kt2=      0.022         
         ute=       -1.5                 ua1=   4.31e-09 m/V     
         ub1=  -7.61e-18 (m/V)^2         uc1=   -5.6e-11 m/V^2   
          at=      33000 m/s             prt=          0         
         using Berkeley noise model       noiMod=          1         
        noia=      1e+20                noib=      50000         
        noic=   -1.4e-12                  em=    4.1e+07         
          ef=          1                  af=          1         
          kf=          0              gdsnoi=-1.23457e-29         
         using Hspice diodes            using ACM 
         acm=         0                 hdif=         0 meter    
        ldif=         0 meter             js=         0 amp/m^2  
         jsw=         0 amp/m            xti=         0          
           n=         1                   cj=0.00096236 f/m^2    
          mj=  0.380501                   pb=       0.8 V        
        cjsw=2.37186e-10 f/m             mjsw=  0.107791          
         php=       0.8 V               pbsw (not used)           
      cjgate=2.37186e-10 f/m            cjswg (not used)           
       mjswg (not used)                 pbswg (not used)           
       lketa=-0.00944713               wketa= 0.00500085         
       pketa=-0.00308008               pvth0=-0.000919017         
         pk2=0.000320258               peta0=9.33065e-05         
         pu0=    32.7094                 pua=1.35883e-10         
       pvsat=    2004.06               prdsw=         -5         
 ***************************************************************************
 ***        model parameters  model name:   0:p_18     model type:pmos   ***
 ***************************************************************************

   *** general parameters ***
    deriv=   0.           

   ***  level 49  model parameters  ***

      hspver=    2006.03               level=         49         
     version=        3.1            paramchk=          0         
      apwarn=          1                lite=          0         
      vgslim=          0             binUnit=          1         
      capMod=          2               xpart=        0.5         
      mobMod=          1              nqsMod=          0         
      stiMod=          0                 elm=          5         
    sfvtflag=          0                 tox=    4.1e-09 meter   
          xj=      1e-07 meter       binflag=          0         
        lmin=          0 meter          lmax=          0 meter   
        wmin=          0 meter          wmax=          0 meter   
        lref=          0 meter          wref=          0 meter   
        lint=2.40594e-08 meter          wint=          0 meter   
       lmult=          1               wmult=          1         
          ll=          0                 lln=          1         
          lw=          0                 lwn=          1         
         lwl=          0                  wl=          0         
         wln=          1                  ww=          0         
         wwn=          1                 wwl=          0         
         dwg=-4.41769e-08 m/V             dwb=6.97017e-09 m/V^1/2 
          xl=          0                  xw=     -1e-08         
          a0=    1.84138                 ags=   0.400689 V^-1    
          b0=7.65708e-07 meter            b1=2.52826e-06 meter   
        keta=  0.0145743 V^-1           voff= -0.0984894 V       
       ngate=          0 cm^-3           vbx=          0 V       
         vbm=         -3 V                xt=   1.55e-07 meter   
        vth0=  -0.404077 V               nch= 4.1589e+17 cm^-3   
        nsub=      6e+16 cm^-3           nlx=1.06879e-07 meter   
      gamma1=          0 V^-1/2       gamma2=          0 V^-1/2  
          k1=   0.583367 V^1/2            k2=  0.0301169         
          k3=          0                 k3b=    16.2021 V^-1    
          w0=      1e-06 meter          dvt0=   0.556918         
        dvt1=   0.246075                dvt2=        0.1 V^-1    
       dvt0w=          0 meter^-1      dvt1w=          0 meter^-1
       dvt2w=          0 V^-1           dsub=    1.02253         
        eta0=   0.152158                etab=  -0.099095 V^-1    
          u0=    116.046 cm^2/V/sec         ua=1.55704e-09 m/V     
          ub=      1e-21 (m/V)^2          uc=     -1e-10 V^-1    
        vsat=     199463 m/sec            a1=   0.373167 v^-1    
          a2=        0.3               delta=       0.01 V       
        rdsw=    287.511 ohm-um         prwg=        0.5 V^-1    
        prwb=  -0.135487 V^-1/2           wr=          1         
        pclm=     2.1661             pdiblc1=3.20891e-05         
     pdiblc2=  0.0164807             pdiblcb=     -0.001 V^-1    
      pscbe1=9.01974e+09 V/m          pscbe2=2.60511e-09 V/m     
       drout=          0                pvag=         15         
     nfactor=     1.8964                cdsc=    0.00024 f/m^2   
       cdscb=          0 f/V/m^2       cdscd=          0 f/V/m^2 
         cit=          0 f/m^2        alpha0=          0 m/V     
       beta0=         30 V               dlc=2.40594e-08 meter   
         dwc=          0 meter           clc=      1e-07 meter   
         cle=        0.6                cgso=   5.75e-10 f/m     
        cgdo=   5.75e-10 f/m            cgbo=      1e-12 f/m     
        cgsl=          0 f/m            cgdl=          0 f/m     
      ckappa=        0.6                  cf=          0 f/m     
        tnom=     300.15 K               kt1=      -0.11 V       
        kt1l=          0                 kt2=      0.022         
         ute=       -1.5                 ua1=   4.31e-09 m/V     
         ub1=  -7.61e-18 (m/V)^2         uc1=   -5.6e-11 m/V^2   
          at=      33000 m/s             prt=          0         
         using Berkeley noise model       noiMod=          1         
        noia=    9.9e+18                noib=       2400         
        noic=    1.4e-12                  em=    4.1e+07         
          ef=          1                  af=          1         
          kf=          0              gdsnoi=-1.23457e-29         
         using Hspice diodes            using ACM 
         acm=         0                 hdif=         0 meter    
        ldif=         0 meter             js=         0 amp/m^2  
         jsw=         0 amp/m            xti=         0          
           n=         1                   cj=0.00116394 f/m^2    
          mj=  0.419416                   pb=  0.865987 V        
        cjsw=1.65613e-10 f/m             mjsw=  0.368302          
         php=  0.865987 V               pbsw (not used)           
      cjgate=1.65613e-10 f/m            cjswg (not used)           
       mjswg (not used)                 pbswg (not used)           
       lketa=-0.00294233               wketa=  0.0266507         
       pketa=-0.00367958               pvth0= 0.00185699         
         pk2= 0.00155429               peta0=0.000100316         
         pu0=    -1.1074                 pua=-4.96912e-11         
         pub=      1e-21               pvsat=        -50         
       prdsw=   -1.14585         
 

  
      
 **info** set option symb=1 internally to help for convergence.
 *****************************************************************
 ******  option summary
 ******
 runlvl  = 3         bypass  = 2         
1****** HSPICE -- F-2011.09-SP2 32-BIT (Feb 27 2012) linux ******               
 ******  
 nmos

  ******  operating point information tnom=  25.000 temp=  25.000 *****
 ***** operating point status is all       simulation time is     0.     
    node    =voltage      node    =voltage      node    =voltage

 +0:b       =-709.1635m 0:g34     = 445.5059m 0:g56     =-477.9546m
 +0:vcc     = 900.0000m 0:vdd     =-900.0000m 0:vin1    =-235.0000m
 +0:vin2    =-235.0000m 0:vout    = 445.5059m


 **** voltage sources

 subckt                                              
 element  0:vcc1     0:vdd1     0:vin1x    0:vin2x   
  volts    900.0000m -900.0000m -235.0000m -235.0000m
  current -780.2095u  780.2095u    0.         0.     
  power    702.1886u  702.1886u    0.         0.     

     total voltage source power dissipation=    1.4044m       watts



 **** resistors

 subckt             
 element  0:r1      
  r value    8.5600k
  v drop     1.3780 
  current  160.9760u
  power    221.8176u



 **** mosfets


 subckt                                                                    
 element  0:m1       0:m2       0:m3       0:m4       0:m5       0:m6      
 model    0:n_18     0:n_18     0:p_18     0:p_18     0:n_18     0:n_18    
 region     Saturati   Saturati   Saturati   Saturati   Saturati   Saturati
  id       309.6167u  309.6167u -309.6167u -309.6167u  619.2335u  160.9760u
  ibs        0.         0.         0.         0.         0.         0.     
  ibd        0.         0.         0.         0.         0.         0.     
  vgs      474.1635m  474.1635m -454.4941m -454.4941m  422.0454m  422.0454m
  vds        1.1547     1.1547  -454.4941m -454.4941m  190.8365m  422.0454m
  vbs      709.1635m  709.1635m -900.0000m -900.0000m  900.0000m  900.0000m
  vth      294.3444m  294.3444m -246.7676m -246.7676m  232.2481m  230.7807m
  vdsat    114.3876m  114.3876m -144.6249m -144.6249m  111.7297m  112.5946m
  vod      179.8191m  179.8191m -207.7265m -207.7265m  189.7973m  191.2648m
  beta      33.6232m   33.6232m   21.1176m   21.1176m   69.9878m   17.5143m
  gam eff  595.5575m  595.5575m  545.6505m  545.6505m  595.7658m  595.7612m
  gm         3.7856m    3.7856m    2.9633m    2.9633m    7.5049m    1.9555m
  gds       37.6955u   37.6955u   42.7812u   42.7812u  214.3042u   19.7987u
  gmb      449.9718u  449.9718u  431.9028u  431.9028u  747.7468u  193.9524u
  cdtot    102.0668f  102.0668f  218.4678f  218.4678f  559.0424f  128.1977f
  cgtot    304.2391f  304.2391f  533.9290f  533.9290f    2.2862p  567.4123f
  cstot    217.8867f  217.8867f  420.1913f  420.1913f    1.3641p  342.4238f
  cbtot    160.4392f  160.4392f  362.6777f  362.6777f  884.9101f  215.8308f
  cgs      259.5831f  259.5831f  475.9389f  475.9389f    2.0847p  522.2227f
  cgd       44.3964f   44.3964f   69.3243f   69.3243f  210.8537f   47.0532f



 ***************************************************
   ******   pole/zero analysis  
  
  
    input =  0:vin1x          output = v(vout)
  
       poles (rad/sec)                 poles ( hertz)
 real            imag            real            imag            
 -57.8882x       0.              -9.21319x       0.              
 -715.425x       0.              -113.863x       0.              
 -2.90297g       0.              -462.022x       0.              
 -10.2969g       0.              -1.63880g       0.              
  
       zeros (rad/sec)                 zeros ( hertz)
 real            imag            real            imag            
 -707.515x       0.              -112.604x       0.              
 -4.63450g       0.              -737.604x       0.              
 32.7423g        35.4373g        5.21110g        5.64002g        
 32.7423g        -35.4373g       5.21110g        -5.64002g       
  
  ***** constant factor = 75.7106u
 ******  
 nmos

  ******  ac analysis tnom=  25.000 temp=  25.000 *****
x

        freq    volt db    
                   vout    
    1.00000k     33.3859   
    1.02329k     33.3859   
    1.04713k     33.3859   
    1.07152k     33.3859   
    1.09648k     33.3859   
    1.12202k     33.3859   
    1.14815k     33.3859   
    1.17490k     33.3859   
    1.20226k     33.3859   
    1.23027k     33.3859   
    1.25893k     33.3859   
    1.28825k     33.3859   
    1.31826k     33.3859   
    1.34896k     33.3859   
    1.38038k     33.3859   
    1.41254k     33.3859   
    1.44544k     33.3859   
    1.47911k     33.3859   
    1.51356k     33.3859   
    1.54882k     33.3859   
    1.58489k     33.3859   
    1.62181k     33.3859   
    1.65959k     33.3859   
    1.69824k     33.3859   
    1.73780k     33.3859   
    1.77828k     33.3859   
    1.81970k     33.3859   
    1.86209k     33.3859   
    1.90546k     33.3859   
    1.94984k     33.3859   
    1.99526k     33.3859   
    2.04174k     33.3859   
    2.08930k     33.3859   
    2.13796k     33.3859   
    2.18776k     33.3859   
    2.23872k     33.3859   
    2.29087k     33.3859   
    2.34423k     33.3859   
    2.39883k     33.3859   
    2.45471k     33.3859   
    2.51189k     33.3859   
    2.57040k     33.3859   
    2.63027k     33.3859   
    2.69153k     33.3859   
    2.75423k     33.3859   
    2.81838k     33.3859   
    2.88403k     33.3859   
    2.95121k     33.3859   
    3.01995k     33.3859   
    3.09030k     33.3859   
    3.16228k     33.3859   
    3.23594k     33.3859   
    3.31131k     33.3859   
    3.38844k     33.3859   
    3.46737k     33.3859   
    3.54813k     33.3859   
    3.63078k     33.3859   
    3.71535k     33.3859   
    3.80189k     33.3859   
    3.89045k     33.3859   
    3.98107k     33.3859   
    4.07380k     33.3859   
    4.16869k     33.3859   
    4.26580k     33.3859   
    4.36516k     33.3859   
    4.46684k     33.3859   
    4.57088k     33.3859   
    4.67735k     33.3859   
    4.78630k     33.3859   
    4.89779k     33.3859   
    5.01187k     33.3859   
    5.12861k     33.3859   
    5.24807k     33.3859   
    5.37032k     33.3859   
    5.49541k     33.3859   
    5.62341k     33.3859   
    5.75440k     33.3859   
    5.88844k     33.3859   
    6.02560k     33.3859   
    6.16595k     33.3859   
    6.30957k     33.3859   
    6.45654k     33.3859   
    6.60693k     33.3859   
    6.76083k     33.3859   
    6.91831k     33.3859   
    7.07946k     33.3859   
    7.24436k     33.3859   
    7.41310k     33.3859   
    7.58578k     33.3859   
    7.76247k     33.3859   
    7.94328k     33.3859   
    8.12831k     33.3859   
    8.31764k     33.3859   
    8.51138k     33.3859   
    8.70964k     33.3859   
    8.91251k     33.3859   
    9.12011k     33.3859   
    9.33254k     33.3859   
    9.54993k     33.3859   
    9.77237k     33.3859   
   10.00000k     33.3859   
   10.23293k     33.3859   
   10.47129k     33.3859   
   10.71519k     33.3859   
   10.96478k     33.3859   
   11.22018k     33.3859   
   11.48154k     33.3859   
   11.74898k     33.3859   
   12.02264k     33.3859   
   12.30269k     33.3859   
   12.58925k     33.3859   
   12.88250k     33.3859   
   13.18257k     33.3859   
   13.48963k     33.3859   
   13.80384k     33.3859   
