Using: /usr/local/apps/synopsys/current_hspice/hspice/linux/hspice nmos_diff_rload.sp
 ****** HSPICE -- F-2011.09-SP2 32-BIT (Feb 27 2012) linux ******               
  Copyright (C) 2011 Synopsys, Inc. All Rights Reserved.                        
  Unpublished-rights reserved under US copyright laws.
  This program is protected by law and is subject to the
  terms and conditions of the license agreement from Synopsys.
  Use of this program is your acceptance to be bound by the
  license agreement. HSPICE is the trademark of Synopsys, Inc.
  Input File: nmos_diff_rload.sp                                                
  Command line options: nmos_diff_rload.sp
 lic:  
 lic: FLEXlm: v10.8 
 lic: USER:   goynese              HOSTNAME: kec1130-14.engr.oregonstate.edu 
 lic: HOSTID: 24be0511c109         PID:      9635 
 lic: Using FLEXlm license file: 
 lic: 7188@license.eecs.oregonstate.edu 
 lic: Checkout 1 hspice 
 lic: License/Maintenance for hspice will expire on 11-aug-2014/2013.03 
 lic: 6(in_use)/50(total) FLOATING license(s) on SERVER license.eecs.oregonstate
 lic:   
 Init: read install configuration file: /usr/local/apps/synopsys/current_hspice/hspice/meta.cfg
1****** HSPICE -- F-2011.09-SP2 32-BIT (Feb 27 2012) linux ******               
 ******  
 nmos

  ******  mos   model parameters tnom=  25.000 temp=  25.000 *****
 ***************************************************************************
 ***        model parameters  model name:   0:n_18     model type:nmos   ***
 ***************************************************************************

   *** general parameters ***
    deriv=   0.           

   ***  level 49  model parameters  ***

      hspver=    2006.03               level=         49         
     version=        3.1            paramchk=          0         
      apwarn=          1                lite=          0         
      vgslim=          0             binUnit=          1         
      capMod=          2               xpart=        0.5         
      mobMod=          1              nqsMod=          0         
      stiMod=          0                 elm=          5         
    sfvtflag=          0                 tox=    4.1e-09 meter   
          xj=      1e-07 meter       binflag=          0         
        lmin=          0 meter          lmax=          0 meter   
        wmin=          0 meter          wmax=          0 meter   
        lref=          0 meter          wref=          0 meter   
        lint=7.65986e-09 meter          wint=          0 meter   
       lmult=          1               wmult=          1         
          ll=          0                 lln=          1         
          lw=          0                 lwn=          1         
         lwl=          0                  wl=          0         
         wln=          1                  ww=          0         
         wwn=          1                 wwl=          0         
         dwg=-1.17694e-08 m/V             dwb=1.96583e-08 m/V^1/2 
          xl=          0                  xw=     -1e-08         
          a0=          2                 ags=   0.428182 V^-1    
          b0=-4.43566e-09 meter            b1=     -1e-07 meter   
        keta=-0.00873409 V^-1           voff= -0.0909514 V       
       ngate=          0 cm^-3           vbx=          0 V       
         vbm=         -3 V                xt=   1.55e-07 meter   
        vth0=   0.376033 V               nch= 2.3549e+17 cm^-3   
        nsub=      6e+16 cm^-3           nlx=1.83658e-07 meter   
      gamma1=          0 V^-1/2       gamma2=          0 V^-1/2  
          k1=   0.598252 V^1/2            k2= 0.00204285         
          k3=      0.001                 k3b=    5.47338 V^-1    
          w0=      1e-07 meter          dvt0=    1.38283         
        dvt1=   0.374633                dvt2=  0.0524724 V^-1    
       dvt0w=          0 meter^-1      dvt1w=          0 meter^-1
       dvt2w=          0 V^-1           dsub= 0.00880778         
        eta0=  0.0029649                etab=9.02839e-05 V^-1    
          u0=    265.099 cm^2/V/sec         ua=-1.34288e-09 m/V     
          ub=2.21876e-18 (m/V)^2          uc=5.30227e-11 V^-1    
        vsat=      99674 m/sec            a1=0.000117788 v^-1    
          a2=          1               delta=       0.01 V       
        rdsw=        150 ohm-um         prwg=        0.5 V^-1    
        prwb=       -0.2 V^-1/2           wr=          1         
        pclm=   0.739383             pdiblc1=   0.240506         
     pdiblc2= 0.00238467             pdiblcb=       -0.1 V^-1    
      pscbe1=2.25061e+09 V/m          pscbe2=5.50405e-09 V/m     
       drout=   0.810147                pvag= 0.00820885         
     nfactor=    2.47421                cdsc=    0.00024 f/m^2   
       cdscb=          0 f/V/m^2       cdscd=          0 f/V/m^2 
         cit=          0 f/m^2        alpha0=          0 m/V     
       beta0=         30 V               dlc=7.65986e-09 meter   
         dwc=          0 meter           clc=      1e-07 meter   
         cle=        0.6                cgso=   7.68e-10 f/m     
        cgdo=   7.68e-10 f/m            cgbo=      1e-12 f/m     
        cgsl=          0 f/m            cgdl=          0 f/m     
      ckappa=        0.6                  cf=          0 f/m     
        tnom=     300.15 K               kt1=      -0.11 V       
        kt1l=          0                 kt2=      0.022         
         ute=       -1.5                 ua1=   4.31e-09 m/V     
         ub1=  -7.61e-18 (m/V)^2         uc1=   -5.6e-11 m/V^2   
          at=      33000 m/s             prt=          0         
         using Berkeley noise model       noiMod=          1         
        noia=      1e+20                noib=      50000         
        noic=   -1.4e-12                  em=    4.1e+07         
          ef=          1                  af=          1         
          kf=          0              gdsnoi=-1.23457e-29         
         using Hspice diodes            using ACM 
         acm=         0                 hdif=         0 meter    
        ldif=         0 meter             js=         0 amp/m^2  
         jsw=         0 amp/m            xti=         0          
           n=         1                   cj=0.00096236 f/m^2    
          mj=  0.380501                   pb=       0.8 V        
        cjsw=2.37186e-10 f/m             mjsw=  0.107791          
         php=       0.8 V               pbsw (not used)           
      cjgate=2.37186e-10 f/m            cjswg (not used)           
       mjswg (not used)                 pbswg (not used)           
       lketa=-0.00944713               wketa= 0.00500085         
       pketa=-0.00308008               pvth0=-0.000919017         
         pk2=0.000320258               peta0=9.33065e-05         
         pu0=    32.7094                 pua=1.35883e-10         
       pvsat=    2004.06               prdsw=         -5         
 ***************************************************************************
 ***        model parameters  model name:   0:p_18     model type:pmos   ***
 ***************************************************************************

   *** general parameters ***
    deriv=   0.           

   ***  level 49  model parameters  ***

      hspver=    2006.03               level=         49         
     version=        3.1            paramchk=          0         
      apwarn=          1                lite=          0         
      vgslim=          0             binUnit=          1         
      capMod=          2               xpart=        0.5         
      mobMod=          1              nqsMod=          0         
      stiMod=          0                 elm=          5         
    sfvtflag=          0                 tox=    4.1e-09 meter   
          xj=      1e-07 meter       binflag=          0         
        lmin=          0 meter          lmax=          0 meter   
        wmin=          0 meter          wmax=          0 meter   
        lref=          0 meter          wref=          0 meter   
        lint=2.40594e-08 meter          wint=          0 meter   
       lmult=          1               wmult=          1         
          ll=          0                 lln=          1         
          lw=          0                 lwn=          1         
         lwl=          0                  wl=          0         
         wln=          1                  ww=          0         
         wwn=          1                 wwl=          0         
         dwg=-4.41769e-08 m/V             dwb=6.97017e-09 m/V^1/2 
          xl=          0                  xw=     -1e-08         
          a0=    1.84138                 ags=   0.400689 V^-1    
          b0=7.65708e-07 meter            b1=2.52826e-06 meter   
        keta=  0.0145743 V^-1           voff= -0.0984894 V       
       ngate=          0 cm^-3           vbx=          0 V       
         vbm=         -3 V                xt=   1.55e-07 meter   
        vth0=  -0.404077 V               nch= 4.1589e+17 cm^-3   
        nsub=      6e+16 cm^-3           nlx=1.06879e-07 meter   
      gamma1=          0 V^-1/2       gamma2=          0 V^-1/2  
          k1=   0.583367 V^1/2            k2=  0.0301169         
          k3=          0                 k3b=    16.2021 V^-1    
          w0=      1e-06 meter          dvt0=   0.556918         
        dvt1=   0.246075                dvt2=        0.1 V^-1    
       dvt0w=          0 meter^-1      dvt1w=          0 meter^-1
       dvt2w=          0 V^-1           dsub=    1.02253         
        eta0=   0.152158                etab=  -0.099095 V^-1    
          u0=    116.046 cm^2/V/sec         ua=1.55704e-09 m/V     
          ub=      1e-21 (m/V)^2          uc=     -1e-10 V^-1    
        vsat=     199463 m/sec            a1=   0.373167 v^-1    
          a2=        0.3               delta=       0.01 V       
        rdsw=    287.511 ohm-um         prwg=        0.5 V^-1    
        prwb=  -0.135487 V^-1/2           wr=          1         
        pclm=     2.1661             pdiblc1=3.20891e-05         
     pdiblc2=  0.0164807             pdiblcb=     -0.001 V^-1    
      pscbe1=9.01974e+09 V/m          pscbe2=2.60511e-09 V/m     
       drout=          0                pvag=         15         
     nfactor=     1.8964                cdsc=    0.00024 f/m^2   
       cdscb=          0 f/V/m^2       cdscd=          0 f/V/m^2 
         cit=          0 f/m^2        alpha0=          0 m/V     
       beta0=         30 V               dlc=2.40594e-08 meter   
         dwc=          0 meter           clc=      1e-07 meter   
         cle=        0.6                cgso=   5.75e-10 f/m     
        cgdo=   5.75e-10 f/m            cgbo=      1e-12 f/m     
        cgsl=          0 f/m            cgdl=          0 f/m     
      ckappa=        0.6                  cf=          0 f/m     
        tnom=     300.15 K               kt1=      -0.11 V       
        kt1l=          0                 kt2=      0.022         
         ute=       -1.5                 ua1=   4.31e-09 m/V     
         ub1=  -7.61e-18 (m/V)^2         uc1=   -5.6e-11 m/V^2   
          at=      33000 m/s             prt=          0         
         using Berkeley noise model       noiMod=          1         
        noia=    9.9e+18                noib=       2400         
        noic=    1.4e-12                  em=    4.1e+07         
          ef=          1                  af=          1         
          kf=          0              gdsnoi=-1.23457e-29         
         using Hspice diodes            using ACM 
         acm=         0                 hdif=         0 meter    
        ldif=         0 meter             js=         0 amp/m^2  
         jsw=         0 amp/m            xti=         0          
           n=         1                   cj=0.00116394 f/m^2    
          mj=  0.419416                   pb=  0.865987 V        
        cjsw=1.65613e-10 f/m             mjsw=  0.368302          
         php=  0.865987 V               pbsw (not used)           
      cjgate=1.65613e-10 f/m            cjswg (not used)           
       mjswg (not used)                 pbswg (not used)           
       lketa=-0.00294233               wketa=  0.0266507         
       pketa=-0.00367958               pvth0= 0.00185699         
         pk2= 0.00155429               peta0=0.000100316         
         pu0=    -1.1074                 pua=-4.96912e-11         
         pub=      1e-21               pvsat=        -50         
       prdsw=   -1.14585         
 

  
      
 **info** set option symb=1 internally to help for convergence.
 *****************************************************************
 ******  option summary
 ******
 runlvl  = 3         bypass  = 2         
1****** HSPICE -- F-2011.09-SP2 32-BIT (Feb 27 2012) linux ******               
 ******  
 nmos

  ******  operating point information tnom=  25.000 temp=  25.000 *****
 ***** operating point status is all       simulation time is     0.     
    node    =voltage      node    =voltage      node    =voltage

 +0:b       = 420.7216m 0:g34     = 431.1056m 0:g56     =-477.9546m
 +0:vcc     = 900.0000m 0:vdd     =-900.0000m 0:vin1    =   4.0000 
 +0:vin2    =   4.0000  0:vout    = 431.1056m


 **** voltage sources

 subckt                                              
 element  0:vcc1     0:vdd1     0:vin1x    0:vin2x   
  volts    900.0000m -900.0000m    4.0000     4.0000 
  current -869.9345u  869.9345u    0.         0.     
  power    782.9411u  782.9411u    0.         0.     

     total voltage source power dissipation=    1.5659m       watts



 **** resistors

 subckt             
 element  0:r1      
  r value    8.5600k
  v drop     1.3780 
  current  160.9760u
  power    221.8176u



 **** mosfets


 subckt                                                                    
 element  0:m1       0:m2       0:m3       0:m4       0:m5       0:m6      
 model    0:n_18     0:n_18     0:p_18     0:p_18     0:n_18     0:n_18    
 region       Linear     Linear   Saturati   Saturati   Saturati   Saturati
  id       354.4793u  354.4793u -354.4793u -354.4793u  708.9585u  160.9760u
  ibs        0.         0.         0.         0.         0.         0.     
  ibd        0.         0.         0.         0.         0.         0.     
  vgs        3.5793     3.5793  -468.8944m -468.8944m  422.0454m  422.0454m
  vds       10.3840m   10.3840m -468.8944m -468.8944m    1.3207   422.0454m
  vbs     -420.7216m -420.7216m -900.0000m -900.0000m  900.0000m  900.0000m
  vth      583.0242m  583.0242m -246.7674m -246.7674m  224.1748m  230.7807m
  vdsat      2.0510     2.0510  -153.9433m -153.9433m  116.5018m  112.5946m
  vod        2.9963     2.9963  -222.1270m -222.1270m  197.8707m  191.2648m
  beta      14.5511m   14.5511m   21.0252m   21.0252m   69.8948m   17.5143m
  gam eff  593.6053m  593.6053m  545.6505m  545.6505m  595.7658m  595.7612m
  gm         0.         0.         3.1757m    3.1757m    8.3208m    1.9555m
  gds       34.0472m   34.0472m   47.4545u   47.4545u   70.9387u   19.7987u
  gmb       39.6175u   39.6175u  463.9127u  463.9127u  822.3794u  193.9524u
  cdtot    216.3987f  216.3987f  217.6437f  217.6437f  440.3806f  128.1977f
  cgtot    337.1741f  337.1741f  534.3330f  534.3330f    2.2695p  567.4123f
  cstot    143.5922f  143.5922f  420.5578f  420.5578f    1.3695p  342.4238f
  cbtot    178.1988f  178.1988f  361.6878f  361.6878f  790.9020f  215.8308f
  cgs      171.2772f  171.2772f  476.5907f  476.5907f    2.0916p  522.2227f
  cgd      164.7996f  164.7996f   69.3254f   69.3254f  186.5592f   47.0532f



 ***************************************************
   ******   pole/zero analysis  
  
  
    input =  0:vin1x          output = v(vout)
  
       poles (rad/sec)                 poles ( hertz)
 real            imag            real            imag            
 -671.851x       0.              -106.928x       0.              
 -2.23808g       0.              -356.201x       0.              
 -23.3283g       0.              -3.71282g       0.              
 -148.586g       0.              -23.6481g       0.              
  
       zeros (rad/sec)                 zeros ( hertz)
 real            imag            real            imag            
 0.              0.              0.              0.              
 -778.596x       0.              -123.917x       0.              
 -40.8350g       0.              -6.49909g       0.              
 -553.089g       0.              -88.0269g       0.              
  
  ***** constant factor = 138.733u
 ******  
 nmos

  ******  ac analysis tnom=  25.000 temp=  25.000 *****
x

        freq    volt db    
                   vout    
    1.00000k   -150.2687   
    1.02329k   -150.0687   
    1.04713k   -149.8687   
    1.07152k   -149.6687   
    1.09648k   -149.4687   
    1.12202k   -149.2687   
    1.14815k   -149.0687   
    1.17490k   -148.8687   
    1.20226k   -148.6687   
    1.23027k   -148.4687   
    1.25893k   -148.2687   
    1.28825k   -148.0687   
    1.31826k   -147.8687   
    1.34896k   -147.6687   
    1.38038k   -147.4687   
    1.41254k   -147.2687   
    1.44544k   -147.0687   
    1.47911k   -146.8687   
    1.51356k   -146.6687   
    1.54882k   -146.4687   
    1.58489k   -146.2687   
    1.62181k   -146.0687   
    1.65959k   -145.8687   
    1.69824k   -145.6687   
    1.73780k   -145.4687   
    1.77828k   -145.2687   
    1.81970k   -145.0687   
    1.86209k   -144.8687   
    1.90546k   -144.6687   
    1.94984k   -144.4687   
    1.99526k   -144.2687   
    2.04174k   -144.0687   
    2.08930k   -143.8687   
    2.13796k   -143.6687   
    2.18776k   -143.4687   
    2.23872k   -143.2687   
    2.29087k   -143.0687   
    2.34423k   -142.8687   
    2.39883k   -142.6687   
    2.45471k   -142.4687   
    2.51189k   -142.2687   
    2.57040k   -142.0687   
    2.63027k   -141.8687   
    2.69153k   -141.6687   
    2.75423k   -141.4687   
    2.81838k   -141.2687   
    2.88403k   -141.0687   
    2.95121k   -140.8687   
    3.01995k   -140.6687   
    3.09030k   -140.4687   
    3.16228k   -140.2687   
    3.23594k   -140.0687   
    3.31131k   -139.8687   
    3.38844k   -139.6687   
    3.46737k   -139.4687   
    3.54813k   -139.2687   
    3.63078k   -139.0687   
    3.71535k   -138.8687   
    3.80189k   -138.6687   
    3.89045k   -138.4687   
    3.98107k   -138.2687   
    4.07380k   -138.0687   
    4.16869k   -137.8687   
    4.26580k   -137.6687   
    4.36516k   -137.4687   
    4.46684k   -137.2687   
    4.57088k   -137.0687   
    4.67735k   -136.8687   
    4.78630k   -136.6687   
    4.89779k   -136.4687   
    5.01187k   -136.2687   
    5.12861k   -136.0687   
    5.24807k   -135.8687   
    5.37032k   -135.6687   
    5.49541k   -135.4687   
    5.62341k   -135.2687   
    5.75440k   -135.0687   
    5.88844k   -134.8687   
    6.02560k   -134.6687   
    6.16595k   -134.4687   
    6.30957k   -134.2687   
    6.45654k   -134.0687   
    6.60693k   -133.8687   
    6.76083k   -133.6687   
    6.91831k   -133.4687   
    7.07946k   -133.2687   
    7.24436k   -133.0687   
    7.41310k   -132.8687   
    7.58578k   -132.6687   
    7.76247k   -132.4687   
    7.94328k   -132.2687   
    8.12831k   -132.0687   
    8.31764k   -131.8687   
    8.51138k   -131.6687   
    8.70964k   -131.4687   
    8.91251k   -131.2687   
    9.12011k   -131.0687   
    9.33254k   -130.8687   
    9.54993k   -130.6687   
    9.77237k   -130.4687   
   10.00000k   -130.2687   
   10.23293k   -130.0687   
   10.47129k   -129.8687   
   10.71519k   -129.6687   
   10.96478k   -129.4687   
   11.22018k   -129.2687   
   11.48154k   -129.0687   
   11.74898k   -128.8687   
   12.02264k   -128.6687   
   12.30269k   -128.4687   
   12.58925k   -128.2687   
   12.88250k   -128.0687   
   13.18257k   -127.8687   
   13.48963k   -127.6687   
   13.80384k   -127.4687   
