Using: /usr/local/apps/synopsys/current_hspice/hspice/linux/hspice nmos_diff_rload.sp
 ****** HSPICE -- F-2011.09-SP2 32-BIT (Feb 27 2012) linux ******               
  Copyright (C) 2011 Synopsys, Inc. All Rights Reserved.                        
  Unpublished-rights reserved under US copyright laws.
  This program is protected by law and is subject to the
  terms and conditions of the license agreement from Synopsys.
  Use of this program is your acceptance to be bound by the
  license agreement. HSPICE is the trademark of Synopsys, Inc.
  Input File: nmos_diff_rload.sp                                                
  Command line options: nmos_diff_rload.sp
 lic:  
 lic: FLEXlm: v10.8 
 lic: USER:   goynese              HOSTNAME: kec1130-14.engr.oregonstate.edu 
 lic: HOSTID: 24be0511c109         PID:      8843 
 lic: Using FLEXlm license file: 
 lic: 7188@license.eecs.oregonstate.edu 
 lic: Checkout 1 hspice 
 lic: License/Maintenance for hspice will expire on 11-aug-2014/2013.03 
 lic: 2(in_use)/50(total) FLOATING license(s) on SERVER license.eecs.oregonstate
 lic:   
 Init: read install configuration file: /usr/local/apps/synopsys/current_hspice/hspice/meta.cfg
1****** HSPICE -- F-2011.09-SP2 32-BIT (Feb 27 2012) linux ******               
 ******  
 .title nmos

  ******  mos   model parameters tnom=  25.000 temp=  25.000 *****
 ***************************************************************************
 ***        model parameters  model name:   0:n_18     model type:nmos   ***
 ***************************************************************************

   *** general parameters ***
    deriv=   0.           

   ***  level 49  model parameters  ***

      hspver=    2006.03               level=         49         
     version=        3.1            paramchk=          0         
      apwarn=          1                lite=          0         
      vgslim=          0             binUnit=          1         
      capMod=          2               xpart=        0.5         
      mobMod=          1              nqsMod=          0         
      stiMod=          0                 elm=          5         
    sfvtflag=          0                 tox=    4.1e-09 meter   
          xj=      1e-07 meter       binflag=          0         
        lmin=          0 meter          lmax=          0 meter   
        wmin=          0 meter          wmax=          0 meter   
        lref=          0 meter          wref=          0 meter   
        lint=7.65986e-09 meter          wint=          0 meter   
       lmult=          1               wmult=          1         
          ll=          0                 lln=          1         
          lw=          0                 lwn=          1         
         lwl=          0                  wl=          0         
         wln=          1                  ww=          0         
         wwn=          1                 wwl=          0         
         dwg=-1.17694e-08 m/V             dwb=1.96583e-08 m/V^1/2 
          xl=          0                  xw=     -1e-08         
          a0=          2                 ags=   0.428182 V^-1    
          b0=-4.43566e-09 meter            b1=     -1e-07 meter   
        keta=-0.00873409 V^-1           voff= -0.0909514 V       
       ngate=          0 cm^-3           vbx=          0 V       
         vbm=         -3 V                xt=   1.55e-07 meter   
        vth0=   0.376033 V               nch= 2.3549e+17 cm^-3   
        nsub=      6e+16 cm^-3           nlx=1.83658e-07 meter   
      gamma1=          0 V^-1/2       gamma2=          0 V^-1/2  
          k1=   0.598252 V^1/2            k2= 0.00204285         
          k3=      0.001                 k3b=    5.47338 V^-1    
          w0=      1e-07 meter          dvt0=    1.38283         
        dvt1=   0.374633                dvt2=  0.0524724 V^-1    
       dvt0w=          0 meter^-1      dvt1w=          0 meter^-1
       dvt2w=          0 V^-1           dsub= 0.00880778         
        eta0=  0.0029649                etab=9.02839e-05 V^-1    
          u0=    265.099 cm^2/V/sec         ua=-1.34288e-09 m/V     
          ub=2.21876e-18 (m/V)^2          uc=5.30227e-11 V^-1    
        vsat=      99674 m/sec            a1=0.000117788 v^-1    
          a2=          1               delta=       0.01 V       
        rdsw=        150 ohm-um         prwg=        0.5 V^-1    
        prwb=       -0.2 V^-1/2           wr=          1         
        pclm=   0.739383             pdiblc1=   0.240506         
     pdiblc2= 0.00238467             pdiblcb=       -0.1 V^-1    
      pscbe1=2.25061e+09 V/m          pscbe2=5.50405e-09 V/m     
       drout=   0.810147                pvag= 0.00820885         
     nfactor=    2.47421                cdsc=    0.00024 f/m^2   
       cdscb=          0 f/V/m^2       cdscd=          0 f/V/m^2 
         cit=          0 f/m^2        alpha0=          0 m/V     
       beta0=         30 V               dlc=7.65986e-09 meter   
         dwc=          0 meter           clc=      1e-07 meter   
         cle=        0.6                cgso=   7.68e-10 f/m     
        cgdo=   7.68e-10 f/m            cgbo=      1e-12 f/m     
        cgsl=          0 f/m            cgdl=          0 f/m     
      ckappa=        0.6                  cf=          0 f/m     
        tnom=     300.15 K               kt1=      -0.11 V       
        kt1l=          0                 kt2=      0.022         
         ute=       -1.5                 ua1=   4.31e-09 m/V     
         ub1=  -7.61e-18 (m/V)^2         uc1=   -5.6e-11 m/V^2   
          at=      33000 m/s             prt=          0         
         using Berkeley noise model       noiMod=          1         
        noia=      1e+20                noib=      50000         
        noic=   -1.4e-12                  em=    4.1e+07         
          ef=          1                  af=          1         
          kf=          0              gdsnoi=-1.23457e-29         
         using Hspice diodes            using ACM 
         acm=         0                 hdif=         0 meter    
        ldif=         0 meter             js=         0 amp/m^2  
         jsw=         0 amp/m            xti=         0          
           n=         1                   cj=0.00096236 f/m^2    
          mj=  0.380501                   pb=       0.8 V        
        cjsw=2.37186e-10 f/m             mjsw=  0.107791          
         php=       0.8 V               pbsw (not used)           
      cjgate=2.37186e-10 f/m            cjswg (not used)           
       mjswg (not used)                 pbswg (not used)           
       lketa=-0.00944713               wketa= 0.00500085         
       pketa=-0.00308008               pvth0=-0.000919017         
         pk2=0.000320258               peta0=9.33065e-05         
         pu0=    32.7094                 pua=1.35883e-10         
       pvsat=    2004.06               prdsw=         -5         
 

  
      
 *****************************************************************
 ******  option summary
 ******
 runlvl  = 3         bypass  = 2         
1****** HSPICE -- F-2011.09-SP2 32-BIT (Feb 27 2012) linux ******               
 ******  
 .title nmos

  ******  operating point information tnom=  25.000 temp=  25.000 *****
 ***** operating point status is all       simulation time is     0.     
    node    =voltage      node    =voltage      node    =voltage

 +0:nin1    = 900.0000m 0:nin2    = 900.0000m 0:nout1   =   1.7000 
 +0:nout2   =   1.7000  0:vdd     =   1.8000  0:vs      = 322.5072m


 **** voltage sources

 subckt                                   
 element  0:vds      0:vin1     0:vin2    
  volts      1.8000   900.0000m  900.0000m
  current -200.0000u    0.         0.     
  power    360.0000u    0.         0.     

     total voltage source power dissipation=  360.0000u       watts



 **** current sources

 subckt             
 element  0:iss     
  volts    322.5072m
  current  200.0000u
  power    -64.5014u


     total current source power dissipation= -64.5014u       watts

 **** resistors

 subckt                        
 element  0:r1       0:r2      
  r value    1.0000k    1.0000k
  v drop   100.0000m  100.0000m
  current  100.0000u  100.0000u
  power     10.0000u   10.0000u



 **** mosfets


 subckt                        
 element  0:m1       0:m2      
 model    0:n_18     0:n_18    
 region     Saturati   Saturati
  id       100.0000u  100.0000u
  ibs        0.         0.     
  ibd        0.         0.     
  vgs      577.4928m  577.4928m
  vds        1.3775     1.3775 
  vbs     -322.5072m -322.5072m
  vth      573.0366m  573.0366m
  vdsat     57.0518m   57.0518m
  vod        4.4562m    4.4562m
  beta      93.5195m   93.5195m
  gam eff  593.7483m  593.7483m
  gm         2.1506m    2.1506m
  gds       43.0462u   43.0462u
  gmb      500.4879u  500.4879u
  cdtot     93.7912f   93.7912f
  cgtot    143.7886f  143.7886f
  cstot    125.0458f  125.0458f
  cbtot    127.5372f  127.5372f
  cgs       84.9712f   84.9712f
  cgd       45.6437f   45.6437f



 ***************************************************
   ******   pole/zero analysis  
  
  
    input =  0:vin1          output = v(nout1)
  
       poles (rad/sec)                 poles ( hertz)
 real            imag            real            imag            
 -912.343x       0.              -145.204x       0.              
 -953.606x       0.              -151.771x       0.              
 -21.5900g       0.              -3.43615g       0.              
  
       zeros (rad/sec)                 zeros ( hertz)
 real            imag            real            imag            
 -912.458x       0.              -145.222x       0.              
 -17.6346g       0.              -2.80663g       0.              
 22.9430g        0.              3.65149g        0.              
  
  ***** constant factor = 524.545u
 ******  
 .title nmos

  ******  ac analysis tnom=  25.000 temp=  25.000 *****
x

        freq    volt db    
                   nout1   
                   nout2   
    1.00000k      6.2852   
    1.02329k      6.2852   
    1.04713k      6.2852   
    1.07152k      6.2852   
    1.09648k      6.2852   
    1.12202k      6.2852   
    1.14815k      6.2852   
    1.17490k      6.2852   
    1.20226k      6.2852   
    1.23027k      6.2852   
    1.25893k      6.2852   
    1.28825k      6.2852   
    1.31826k      6.2852   
    1.34896k      6.2852   
    1.38038k      6.2852   
    1.41254k      6.2852   
    1.44544k      6.2852   
    1.47911k      6.2852   
    1.51356k      6.2852   
    1.54882k      6.2852   
    1.58489k      6.2852   
    1.62181k      6.2852   
    1.65959k      6.2852   
    1.69824k      6.2852   
    1.73780k      6.2852   
    1.77828k      6.2852   
    1.81970k      6.2852   
    1.86209k      6.2852   
    1.90546k      6.2852   
    1.94984k      6.2852   
    1.99526k      6.2852   
    2.04174k      6.2852   
    2.08930k      6.2852   
    2.13796k      6.2852   
    2.18776k      6.2852   
    2.23872k      6.2852   
    2.29087k      6.2852   
    2.34423k      6.2852   
    2.39883k      6.2852   
    2.45471k      6.2852   
    2.51189k      6.2852   
    2.57040k      6.2852   
    2.63027k      6.2852   
    2.69153k      6.2852   
    2.75423k      6.2852   
    2.81838k      6.2852   
    2.88403k      6.2852   
    2.95121k      6.2852   
    3.01995k      6.2852   
    3.09030k      6.2852   
    3.16228k      6.2852   
    3.23594k      6.2852   
    3.31131k      6.2852   
    3.38844k      6.2852   
    3.46737k      6.2852   
    3.54813k      6.2852   
    3.63078k      6.2852   
    3.71535k      6.2852   
    3.80189k      6.2852   
    3.89045k      6.2852   
    3.98107k      6.2852   
    4.07380k      6.2852   
    4.16869k      6.2852   
    4.26580k      6.2852   
    4.36516k      6.2852   
    4.46684k      6.2852   
    4.57088k      6.2852   
    4.67735k      6.2852   
    4.78630k      6.2852   
    4.89779k      6.2852   
    5.01187k      6.2852   
    5.12861k      6.2852   
    5.24807k      6.2852   
    5.37032k      6.2852   
    5.49541k      6.2852   
    5.62341k      6.2852   
    5.75440k      6.2852   
    5.88844k      6.2852   
    6.02560k      6.2852   
    6.16595k      6.2852   
    6.30957k      6.2852   
    6.45654k      6.2852   
    6.60693k      6.2852   
    6.76083k      6.2852   
    6.91831k      6.2852   
    7.07946k      6.2852   
    7.24436k      6.2852   
    7.41310k      6.2852   
    7.58578k      6.2852   
    7.76247k      6.2852   
    7.94328k      6.2852   
    8.12831k      6.2852   
    8.31764k      6.2852   
    8.51138k      6.2852   
    8.70964k      6.2852   
    8.91251k      6.2852   
    9.12011k      6.2852   
    9.33254k      6.2852   
    9.54993k      6.2852   
    9.77237k      6.2852   
   10.00000k      6.2852   
   10.23293k      6.2852   
   10.47129k      6.2852   
   10.71519k      6.2852   
   10.96478k      6.2852   
   11.22018k      6.2852   
   11.48154k      6.2852   
   11.74898k      6.2852   
   12.02264k      6.2852   
   12.30269k      6.2852   
   12.58925k      6.2852   
   12.88250k      6.2852   
   13.18257k      6.2852   
   13.48963k      6.2852   
   13.80384k      6.2852   
   14.12538k      6.2852   
   14.45440k      6.2852   
   14.79108k      6.2852   
   15.13561k      6.2852   
   15.48817k      6.2852   
   15.84893k      6.2852   
   16.21810k      6.2852   
   16.59587k      6.2852   
   16.98244k      6.2852   
   17.37801k      6.2852   
   17.78279k      6.2852   
   18.19701k      6.2852   
   18.62087k      6.2852   
   19.05461k      6.2852   
   19.49845k      6.2852   
   19.95262k      6.2852   
   20.41738k      6.2852   
   20.89296k      6.2852   
   21.37962k      6.2852   
   21.87762k      6.2852   
   22.38721k      6.2852   
   22.90868k      6.2852   
   23.44229k      6.2852   
   23.98833k      6.2852   
   24.54709k      6.2852   
   25.11886k      6.2852   
   25.70396k      6.2852   
   26.30268k      6.2852   
   26.91535k      6.2852   
   27.54229k      6.2852   
   28.18383k      6.2852   
   28.84032k      6.2852   
   29.51209k      6.2852   
   30.19952k      6.2852   
   30.90295k      6.2852   
   31.62278k      6.2852   
   32.35937k      6.2852   
   33.11311k      6.2852   
   33.88442k      6.2852   
   34.67369k      6.2852   
   35.48134k      6.2852   
   36.30781k      6.2852   
   37.15352k      6.2852   
   38.01894k      6.2852   
   38.90451k      6.2852   
   39.81072k      6.2852   
   40.73803k      6.2852   
   41.68694k      6.2852   
   42.65795k      6.2852   
   43.65158k      6.2852   
   44.66836k      6.2852   
   45.70882k      6.2852   
   46.77351k      6.2852   
   47.86301k      6.2852   
   48.97788k      6.2852   
   50.11872k      6.2852   
   51.28614k      6.2852   
   52.48075k      6.2852   
   53.70318k      6.2852   
   54.95409k      6.2852   
   56.23413k      6.2852   
   57.54399k      6.2852   
   58.88437k      6.2852   
   60.25596k      6.2852   
   61.65950k      6.2852   
   63.09573k      6.2852   
   64.56542k      6.2852   
   66.06934k      6.2852   
   67.60830k      6.2852   
   69.18310k      6.2852   
   70.79458k      6.2852   
   72.44360k      6.2852   
   74.13102k      6.2852   
   75.85776k      6.2852   
   77.62471k      6.2852   
   79.43282k      6.2852   
   81.28305k      6.2852   
   83.17638k      6.2852   
   85.11380k      6.2852   
   87.09636k      6.2852   
   89.12509k      6.2852   
   91.20108k      6.2852   
   93.32543k      6.2852   
   95.49926k      6.2852   
   97.72372k      6.2852   
  100.00000k      6.2852   
  102.32930k      6.2852   
  104.71285k      6.2852   
  107.15193k      6.2852   
  109.64782k      6.2852   
  112.20185k      6.2852   
  114.81536k      6.2852   
  117.48976k      6.2852   
  120.22644k      6.2852   
  123.02688k      6.2852   
  125.89254k      6.2852   
  128.82496k      6.2852   
  131.82567k      6.2852   
  134.89629k      6.2852   
  138.03843k      6.2852   
  141.25375k      6.2852   
  144.54398k      6.2852   
  147.91084k      6.2852   
  151.35612k      6.2852   
  154.88166k      6.2852   
  158.48932k      6.2852   
  162.18101k      6.2852   
  165.95869k      6.2852   
  169.82437k      6.2852   
  173.78008k      6.2852   
  177.82794k      6.2852   
  181.97009k      6.2852   
  186.20871k      6.2852   
  190.54607k      6.2852   
  194.98446k      6.2852   
  199.52623k      6.2852   
  204.17379k      6.2852   
  208.92961k      6.2852   
  213.79621k      6.2852   
  218.77616k      6.2852   
  223.87211k      6.2852   
  229.08677k      6.2852   
  234.42288k      6.2852   
  239.88329k      6.2852   
  245.47089k      6.2852   
  251.18864k      6.2852   
  257.03958k      6.2852   
  263.02680k      6.2852   
  269.15348k      6.2852   
  275.42287k      6.2852   
  281.83829k      6.2852   
  288.40315k      6.2852   
  295.12092k      6.2852   
  301.99517k      6.2852   
  309.02954k      6.2852   
  316.22777k      6.2852   
  323.59366k      6.2852   
  331.13112k      6.2852   
  338.84416k      6.2852   
  346.73685k      6.2852   
  354.81339k      6.2852   
  363.07805k      6.2852   
  371.53523k      6.2852   
  380.18940k      6.2852   
  389.04514k      6.2852   
  398.10717k      6.2852   
  407.38028k      6.2852   
  416.86938k      6.2852   
  426.57952k      6.2852   
  436.51583k      6.2852   
  446.68359k      6.2852   
  457.08819k      6.2852   
  467.73514k      6.2852   
  478.63009k      6.2852   
  489.77882k      6.2852   
  501.18723k      6.2852   
  512.86138k      6.2852   
  524.80746k      6.2852   
  537.03180k      6.2852   
  549.54087k      6.2852   
  562.34133k      6.2852   
  575.43994k      6.2852   
  588.84366k      6.2852   
  602.55959k      6.2852   
  616.59500k      6.2851   
  630.95734k      6.2851   
  645.65423k      6.2851   
  660.69345k      6.2851   
  676.08298k      6.2851   
  691.83097k      6.2851   
  707.94578k      6.2851   
  724.43596k      6.2851   
  741.31024k      6.2851   
  758.57758k      6.2851   
  776.24712k      6.2851   
  794.32823k      6.2851   
  812.83052k      6.2851   
  831.76377k      6.2851   
  851.13804k      6.2851   
  870.96359k      6.2851   
  891.25094k      6.2851   
  912.01084k      6.2851   
  933.25430k      6.2851   
  954.99259k      6.2850   
  977.23722k      6.2850   
    1.00000x      6.2850   
    1.02329x      6.2850   
    1.04713x      6.2850   
    1.07152x      6.2850   
    1.09648x      6.2850   
    1.12202x      6.2850   
    1.14815x      6.2850   
    1.17490x      6.2850   
    1.20226x      6.2849   
    1.23027x      6.2849   
    1.25893x      6.2849   
    1.28825x      6.2849   
    1.31826x      6.2849   
    1.34896x      6.2849   
    1.38038x      6.2849   
    1.41254x      6.2848   
    1.44544x      6.2848   
    1.47911x      6.2848   
    1.51356x      6.2848   
    1.54882x      6.2848   
    1.58489x      6.2847   
    1.62181x      6.2847   
    1.65959x      6.2847   
    1.69824x      6.2847   
    1.73780x      6.2847   
    1.77828x      6.2846   
    1.81970x      6.2846   
    1.86209x      6.2846   
    1.90546x      6.2845   
    1.94984x      6.2845   
    1.99526x      6.2845   
    2.04174x      6.2844   
    2.08930x      6.2844   
    2.13796x      6.2844   
    2.18776x      6.2843   
    2.23872x      6.2843   
    2.29087x      6.2842   
    2.34423x      6.2842   
    2.39883x      6.2841   
    2.45471x      6.2841   
    2.51189x      6.2840   
    2.57040x      6.2840   
    2.63027x      6.2839   
    2.69153x      6.2839   
    2.75423x      6.2838   
    2.81838x      6.2837   
    2.88403x      6.2837   
    2.95121x      6.2836   
    3.01995x      6.2835   
    3.09030x      6.2834   
    3.16228x      6.2833   
    3.23594x      6.2832   
    3.31131x      6.2832   
    3.38844x      6.2831   
