Using: /usr/local/apps/synopsys/current_hspice/hspice/linux/hspice nmos_diff_rload2.sp
 ****** HSPICE -- F-2011.09-SP2 32-BIT (Feb 27 2012) linux ******               
  Copyright (C) 2011 Synopsys, Inc. All Rights Reserved.                        
  Unpublished-rights reserved under US copyright laws.
  This program is protected by law and is subject to the
  terms and conditions of the license agreement from Synopsys.
  Use of this program is your acceptance to be bound by the
  license agreement. HSPICE is the trademark of Synopsys, Inc.
  Input File: nmos_diff_rload2.sp                                               
  Command line options: nmos_diff_rload2.sp
 lic:  
 lic: FLEXlm: v10.8 
 lic: USER:   goynese              HOSTNAME: kec1130-14.engr.oregonstate.edu 
 lic: HOSTID: 24be0511c109         PID:      13779 
 lic: Using FLEXlm license file: 
 lic: 7188@license.eecs.oregonstate.edu 
 lic: Checkout 1 hspice 
 lic: License/Maintenance for hspice will expire on 11-aug-2014/2013.03 
 lic: 3(in_use)/50(total) FLOATING license(s) on SERVER license.eecs.oregonstate
 lic:   
 Init: read install configuration file: /usr/local/apps/synopsys/current_hspice/hspice/meta.cfg
1****** HSPICE -- F-2011.09-SP2 32-BIT (Feb 27 2012) linux ******               
 ******  
 .title nmos

  ******  mos   model parameters tnom=  25.000 temp=  25.000 *****
 ***************************************************************************
 ***        model parameters  model name:   0:n_18     model type:nmos   ***
 ***************************************************************************

   *** general parameters ***
    deriv=   0.           

   ***  level 49  model parameters  ***

      hspver=    2006.03               level=         49         
     version=        3.1            paramchk=          0         
      apwarn=          1                lite=          0         
      vgslim=          0             binUnit=          1         
      capMod=          2               xpart=        0.5         
      mobMod=          1              nqsMod=          0         
      stiMod=          0                 elm=          5         
    sfvtflag=          0                 tox=    4.1e-09 meter   
          xj=      1e-07 meter       binflag=          0         
        lmin=          0 meter          lmax=          0 meter   
        wmin=          0 meter          wmax=          0 meter   
        lref=          0 meter          wref=          0 meter   
        lint=7.65986e-09 meter          wint=          0 meter   
       lmult=          1               wmult=          1         
          ll=          0                 lln=          1         
          lw=          0                 lwn=          1         
         lwl=          0                  wl=          0         
         wln=          1                  ww=          0         
         wwn=          1                 wwl=          0         
         dwg=-1.17694e-08 m/V             dwb=1.96583e-08 m/V^1/2 
          xl=          0                  xw=     -1e-08         
          a0=          2                 ags=   0.428182 V^-1    
          b0=-4.43566e-09 meter            b1=     -1e-07 meter   
        keta=-0.00873409 V^-1           voff= -0.0909514 V       
       ngate=          0 cm^-3           vbx=          0 V       
         vbm=         -3 V                xt=   1.55e-07 meter   
        vth0=   0.376033 V               nch= 2.3549e+17 cm^-3   
        nsub=      6e+16 cm^-3           nlx=1.83658e-07 meter   
      gamma1=          0 V^-1/2       gamma2=          0 V^-1/2  
          k1=   0.598252 V^1/2            k2= 0.00204285         
          k3=      0.001                 k3b=    5.47338 V^-1    
          w0=      1e-07 meter          dvt0=    1.38283         
        dvt1=   0.374633                dvt2=  0.0524724 V^-1    
       dvt0w=          0 meter^-1      dvt1w=          0 meter^-1
       dvt2w=          0 V^-1           dsub= 0.00880778         
        eta0=  0.0029649                etab=9.02839e-05 V^-1    
          u0=    265.099 cm^2/V/sec         ua=-1.34288e-09 m/V     
          ub=2.21876e-18 (m/V)^2          uc=5.30227e-11 V^-1    
        vsat=      99674 m/sec            a1=0.000117788 v^-1    
          a2=          1               delta=       0.01 V       
        rdsw=        150 ohm-um         prwg=        0.5 V^-1    
        prwb=       -0.2 V^-1/2           wr=          1         
        pclm=   0.739383             pdiblc1=   0.240506         
     pdiblc2= 0.00238467             pdiblcb=       -0.1 V^-1    
      pscbe1=2.25061e+09 V/m          pscbe2=5.50405e-09 V/m     
       drout=   0.810147                pvag= 0.00820885         
     nfactor=    2.47421                cdsc=    0.00024 f/m^2   
       cdscb=          0 f/V/m^2       cdscd=          0 f/V/m^2 
         cit=          0 f/m^2        alpha0=          0 m/V     
       beta0=         30 V               dlc=7.65986e-09 meter   
         dwc=          0 meter           clc=      1e-07 meter   
         cle=        0.6                cgso=   7.68e-10 f/m     
        cgdo=   7.68e-10 f/m            cgbo=      1e-12 f/m     
        cgsl=          0 f/m            cgdl=          0 f/m     
      ckappa=        0.6                  cf=          0 f/m     
        tnom=     300.15 K               kt1=      -0.11 V       
        kt1l=          0                 kt2=      0.022         
         ute=       -1.5                 ua1=   4.31e-09 m/V     
         ub1=  -7.61e-18 (m/V)^2         uc1=   -5.6e-11 m/V^2   
          at=      33000 m/s             prt=          0         
         using Berkeley noise model       noiMod=          1         
        noia=      1e+20                noib=      50000         
        noic=   -1.4e-12                  em=    4.1e+07         
          ef=          1                  af=          1         
          kf=          0              gdsnoi=-1.23457e-29         
         using Hspice diodes            using ACM 
         acm=         0                 hdif=         0 meter    
        ldif=         0 meter             js=         0 amp/m^2  
         jsw=         0 amp/m            xti=         0          
           n=         1                   cj=0.00096236 f/m^2    
          mj=  0.380501                   pb=       0.8 V        
        cjsw=2.37186e-10 f/m             mjsw=  0.107791          
         php=       0.8 V               pbsw (not used)           
      cjgate=2.37186e-10 f/m            cjswg (not used)           
       mjswg (not used)                 pbswg (not used)           
       lketa=-0.00944713               wketa= 0.00500085         
       pketa=-0.00308008               pvth0=-0.000919017         
         pk2=0.000320258               peta0=9.33065e-05         
         pu0=    32.7094                 pua=1.35883e-10         
       pvsat=    2004.06               prdsw=         -5         
 

  
      
 *****************************************************************
 ******  option summary
 ******
 runlvl  = 3         bypass  = 2         
1****** HSPICE -- F-2011.09-SP2 32-BIT (Feb 27 2012) linux ******               
 ******  
 .title nmos

  ******  operating point information tnom=  25.000 temp=  25.000 *****
 ***** operating point status is all       simulation time is     0.     
    node    =voltage      node    =voltage      node    =voltage

 +0:drain   =   1.2683  0:gate    = 600.0000m 0:vdd     =   1.8000 
 +0:vin1    = 600.0000m


 **** voltage sources

 subckt                        
 element  0:vddx     0:vin1x   
  volts      1.8000   600.0000m
  current -531.7191u    0.     
  power    957.0945u    0.     

     total voltage source power dissipation=  957.0945u       watts



 **** resistors

 subckt                        
 element  0:r1       0:r2      
  r value    1.0000k    1.0000k
  v drop     0.      -531.7191m
  current    0.      -531.7191u
  power      0.       282.7252u



 **** mosfets


 subckt             
 element  0:m1      
 model    0:n_18    
 region     Saturati
  id       531.7191u
  ibs        0.     
  ibd        0.     
  vgs      600.0000m
  vds        1.2683 
  vbs        0.     
  vth      417.0527m
  vdsat    141.2833m
  vod      182.9473m
  beta      42.9514m
  gam eff  594.4615m
  gm         5.8974m
  gds       51.2871u
  gmb        1.6721m
  cdtot    237.1224f
  cgtot      1.2632p
  cstot    821.4365f
  cbtot    614.5851f
  cgs        1.0906p
  cgd      108.1243f



 ***************************************************
   ******   pole/zero analysis  
  
  
    input =  0:vin1x          output = v(drain)
  
       poles (rad/sec)                 poles ( hertz)
 real            imag            real            imag            
 -405.582x       0.              -64.5504x       0.              
 -1.72145g       0.              -273.977x       0.              
  
       zeros (rad/sec)                 zeros ( hertz)
 real            imag            real            imag            
 11.1906g        0.              1.78104g        0.              
  
  ***** constant factor = 3.49992x
 ******  
 .title nmos

  ******  ac analysis tnom=  25.000 temp=  25.000 *****
x

        freq    volt db    
                   drain   
    1.00000k      8.9582   
    1.02329k      8.9582   
    1.04713k      8.9582   
    1.07152k      8.9582   
    1.09648k      8.9582   
    1.12202k      8.9582   
    1.14815k      8.9582   
    1.17490k      8.9582   
    1.20226k      8.9582   
    1.23027k      8.9582   
    1.25893k      8.9582   
    1.28825k      8.9582   
    1.31826k      8.9582   
    1.34896k      8.9582   
    1.38038k      8.9582   
    1.41254k      8.9582   
    1.44544k      8.9582   
    1.47911k      8.9582   
    1.51356k      8.9582   
    1.54882k      8.9582   
    1.58489k      8.9582   
    1.62181k      8.9582   
    1.65959k      8.9582   
    1.69824k      8.9582   
    1.73780k      8.9582   
    1.77828k      8.9582   
    1.81970k      8.9582   
    1.86209k      8.9582   
    1.90546k      8.9582   
    1.94984k      8.9582   
    1.99526k      8.9582   
    2.04174k      8.9582   
    2.08930k      8.9582   
    2.13796k      8.9582   
    2.18776k      8.9582   
    2.23872k      8.9582   
    2.29087k      8.9582   
    2.34423k      8.9582   
    2.39883k      8.9582   
    2.45471k      8.9582   
    2.51189k      8.9582   
    2.57040k      8.9582   
    2.63027k      8.9582   
    2.69153k      8.9582   
    2.75423k      8.9582   
    2.81838k      8.9582   
    2.88403k      8.9582   
    2.95121k      8.9582   
    3.01995k      8.9582   
    3.09030k      8.9582   
    3.16228k      8.9582   
    3.23594k      8.9582   
    3.31131k      8.9582   
    3.38844k      8.9582   
    3.46737k      8.9582   
    3.54813k      8.9582   
    3.63078k      8.9582   
    3.71535k      8.9582   
    3.80189k      8.9582   
    3.89045k      8.9582   
    3.98107k      8.9582   
    4.07380k      8.9582   
    4.16869k      8.9582   
    4.26580k      8.9582   
    4.36516k      8.9582   
    4.46684k      8.9582   
    4.57088k      8.9582   
    4.67735k      8.9582   
    4.78630k      8.9582   
    4.89779k      8.9582   
    5.01187k      8.9582   
    5.12861k      8.9582   
    5.24807k      8.9582   
    5.37032k      8.9582   
    5.49541k      8.9582   
    5.62341k      8.9582   
    5.75440k      8.9582   
    5.88844k      8.9582   
    6.02560k      8.9582   
    6.16595k      8.9582   
    6.30957k      8.9582   
    6.45654k      8.9582   
    6.60693k      8.9582   
    6.76083k      8.9582   
    6.91831k      8.9582   
    7.07946k      8.9582   
    7.24436k      8.9582   
    7.41310k      8.9582   
    7.58578k      8.9582   
    7.76247k      8.9582   
    7.94328k      8.9582   
    8.12831k      8.9582   
    8.31764k      8.9582   
    8.51138k      8.9582   
    8.70964k      8.9582   
    8.91251k      8.9582   
    9.12011k      8.9582   
    9.33254k      8.9582   
    9.54993k      8.9582   
    9.77237k      8.9582   
   10.00000k      8.9582   
   10.23293k      8.9582   
   10.47129k      8.9582   
   10.71519k      8.9582   
   10.96478k      8.9582   
   11.22018k      8.9582   
   11.48154k      8.9582   
   11.74898k      8.9582   
   12.02264k      8.9582   
   12.30269k      8.9582   
   12.58925k      8.9582   
   12.88250k      8.9582   
   13.18257k      8.9582   
   13.48963k      8.9582   
   13.80384k      8.9582   
   14.12538k      8.9582   
   14.45440k      8.9582   
   14.79108k      8.9582   
   15.13561k      8.9582   
   15.48817k      8.9582   
   15.84893k      8.9582   
   16.21810k      8.9582   
   16.59587k      8.9582   
   16.98244k      8.9582   
   17.37801k      8.9582   
   17.78279k      8.9582   
   18.19701k      8.9582   
   18.62087k      8.9582   
   19.05461k      8.9582   
   19.49845k      8.9582   
   19.95262k      8.9582   
   20.41738k      8.9582   
   20.89296k      8.9582   
   21.37962k      8.9582   
   21.87762k      8.9582   
   22.38721k      8.9582   
   22.90868k      8.9582   
   23.44229k      8.9582   
   23.98833k      8.9582   
   24.54709k      8.9582   
   25.11886k      8.9582   
   25.70396k      8.9582   
   26.30268k      8.9582   
   26.91535k      8.9582   
   27.54229k      8.9582   
   28.18383k      8.9582   
   28.84032k      8.9582   
   29.51209k      8.9582   
   30.19952k      8.9582   
   30.90295k      8.9582   
   31.62278k      8.9582   
   32.35937k      8.9582   
   33.11311k      8.9582   
   33.88442k      8.9582   
   34.67369k      8.9582   
   35.48134k      8.9582   
   36.30781k      8.9582   
   37.15352k      8.9582   
   38.01894k      8.9582   
   38.90451k      8.9582   
   39.81072k      8.9582   
   40.73803k      8.9582   
   41.68694k      8.9582   
   42.65795k      8.9582   
   43.65158k      8.9582   
   44.66836k      8.9582   
   45.70882k      8.9582   
   46.77351k      8.9582   
   47.86301k      8.9582   
   48.97788k      8.9582   
   50.11872k      8.9582   
   51.28614k      8.9582   
   52.48075k      8.9582   
   53.70318k      8.9582   
   54.95409k      8.9582   
   56.23413k      8.9582   
   57.54399k      8.9582   
   58.88437k      8.9582   
   60.25596k      8.9582   
   61.65950k      8.9582   
   63.09573k      8.9582   
   64.56542k      8.9582   
   66.06934k      8.9582   
   67.60830k      8.9582   
   69.18310k      8.9582   
   70.79458k      8.9582   
   72.44360k      8.9582   
   74.13102k      8.9582   
   75.85776k      8.9582   
   77.62471k      8.9582   
   79.43282k      8.9582   
   81.28305k      8.9582   
   83.17638k      8.9582   
   85.11380k      8.9582   
   87.09636k      8.9582   
   89.12509k      8.9582   
   91.20108k      8.9582   
   93.32543k      8.9582   
   95.49926k      8.9582   
   97.72372k      8.9582   
  100.00000k      8.9582   
  102.32930k      8.9582   
  104.71285k      8.9582   
  107.15193k      8.9582   
  109.64782k      8.9582   
  112.20185k      8.9582   
  114.81536k      8.9582   
  117.48976k      8.9581   
  120.22644k      8.9581   
  123.02688k      8.9581   
  125.89254k      8.9581   
  128.82496k      8.9581   
  131.82567k      8.9581   
  134.89629k      8.9581   
  138.03843k      8.9581   
  141.25375k      8.9581   
  144.54398k      8.9581   
  147.91084k      8.9581   
  151.35612k      8.9581   
  154.88166k      8.9581   
  158.48932k      8.9581   
  162.18101k      8.9581   
  165.95869k      8.9581   
  169.82437k      8.9581   
  173.78008k      8.9581   
  177.82794k      8.9581   
  181.97009k      8.9581   
  186.20871k      8.9581   
  190.54607k      8.9581   
  194.98446k      8.9581   
  199.52623k      8.9581   
  204.17379k      8.9581   
  208.92961k      8.9581   
  213.79621k      8.9581   
  218.77616k      8.9581   
  223.87211k      8.9581   
  229.08677k      8.9581   
  234.42288k      8.9581   
  239.88329k      8.9581   
  245.47089k      8.9581   
  251.18864k      8.9581   
  257.03958k      8.9581   
  263.02680k      8.9581   
  269.15348k      8.9581   
  275.42287k      8.9581   
  281.83829k      8.9581   
  288.40315k      8.9581   
  295.12092k      8.9581   
  301.99517k      8.9581   
  309.02954k      8.9581   
  316.22777k      8.9581   
  323.59366k      8.9580   
  331.13112k      8.9580   
  338.84416k      8.9580   
  346.73685k      8.9580   
  354.81339k      8.9580   
  363.07805k      8.9580   
  371.53523k      8.9580   
  380.18940k      8.9580   
  389.04514k      8.9580   
  398.10717k      8.9580   
  407.38028k      8.9580   
  416.86938k      8.9580   
  426.57952k      8.9580   
  436.51583k      8.9580   
  446.68359k      8.9579   
  457.08819k      8.9579   
  467.73514k      8.9579   
  478.63009k      8.9579   
  489.77882k      8.9579   
  501.18723k      8.9579   
  512.86138k      8.9579   
  524.80746k      8.9579   
  537.03180k      8.9578   
  549.54087k      8.9578   
  562.34133k      8.9578   
  575.43994k      8.9578   
  588.84366k      8.9578   
  602.55959k      8.9578   
  616.59500k      8.9577   
  630.95734k      8.9577   
  645.65423k      8.9577   
  660.69345k      8.9577   
  676.08298k      8.9577   
  691.83097k      8.9576   
  707.94578k      8.9576   
  724.43596k      8.9576   
  741.31024k      8.9576   
  758.57758k      8.9575   
  776.24712k      8.9575   
  794.32823k      8.9575   
  812.83052k      8.9574   
  831.76377k      8.9574   
  851.13804k      8.9574   
  870.96359k      8.9573   
  891.25094k      8.9573   
  912.01084k      8.9573   
  933.25430k      8.9572   
  954.99259k      8.9572   
  977.23722k      8.9571   
    1.00000x      8.9571   
    1.02329x      8.9570   
    1.04713x      8.9570   
    1.07152x      8.9569   
    1.09648x      8.9568   
    1.12202x      8.9568   
    1.14815x      8.9567   
    1.17490x      8.9566   
    1.20226x      8.9566   
    1.23027x      8.9565   
    1.25893x      8.9564   
    1.28825x      8.9563   
    1.31826x      8.9563   
    1.34896x      8.9562   
    1.38038x      8.9561   
    1.41254x      8.9560   
    1.44544x      8.9559   
    1.47911x      8.9558   
    1.51356x      8.9556   
    1.54882x      8.9555   
    1.58489x      8.9554   
    1.62181x      8.9553   
    1.65959x      8.9551   
    1.69824x      8.9550   
    1.73780x      8.9548   
    1.77828x      8.9547   
    1.81970x      8.9545   
    1.86209x      8.9544   
    1.90546x      8.9542   
    1.94984x      8.9540   
    1.99526x      8.9538   
    2.04174x      8.9536   
    2.08930x      8.9534   
    2.13796x      8.9531   
    2.18776x      8.9529   
    2.23872x      8.9527   
    2.29087x      8.9524   
    2.34423x      8.9521   
    2.39883x      8.9518   
    2.45471x      8.9515   
    2.51189x      8.9512   
    2.57040x      8.9509   
    2.63027x      8.9506   
    2.69153x      8.9502   
    2.75423x      8.9498   
    2.81838x      8.9494   
    2.88403x      8.9490   
    2.95121x      8.9486   
    3.01995x      8.9482   
    3.09030x      8.9477   
    3.16228x      8.9472   
    3.23594x      8.9467   
    3.31131x      8.9461   
    3.38844x      8.9456   
    3.46737x      8.9450   
    3.54813x      8.9444   
    3.63078x      8.9437   
    3.71535x      8.9430   
    3.80189x      8.9423   
    3.89045x      8.9416   
    3.98107x      8.9408   
    4.07380x      8.9400   
    4.16869x      8.9391   
    4.26580x      8.9382   
    4.36516x      8.9373   
    4.46684x      8.9363   
    4.57088x      8.9353   
    4.67735x      8.9342   
    4.78630x      8.9331   
    4.89779x      8.9319   
    5.01187x      8.9306   
    5.12861x      8.9294   
    5.24807x      8.9280   
    5.37032x      8.9266   
    5.49541x      8.9251   
    5.62341x      8.9235   
    5.75440x      8.9219   
    5.88844x      8.9202   
    6.02560x      8.9184   
    6.16595x      8.9166   
    6.30957x      8.9146   
    6.45654x      8.9126   
