Using: /usr/local/apps/synopsys/current_hspice/hspice/linux/hspice nmos_diff_rload.sp
 ****** HSPICE -- F-2011.09-SP2 32-BIT (Feb 27 2012) linux ******               
  Copyright (C) 2011 Synopsys, Inc. All Rights Reserved.                        
  Unpublished-rights reserved under US copyright laws.
  This program is protected by law and is subject to the
  terms and conditions of the license agreement from Synopsys.
  Use of this program is your acceptance to be bound by the
  license agreement. HSPICE is the trademark of Synopsys, Inc.
  Input File: nmos_diff_rload.sp                                                
  Command line options: nmos_diff_rload.sp
 lic:  
 lic: FLEXlm: v10.8 
 lic: USER:   goynese              HOSTNAME: kec1130-14.engr.oregonstate.edu 
 lic: HOSTID: 24be0511c109         PID:      13757 
 lic: Using FLEXlm license file: 
 lic: 7188@license.eecs.oregonstate.edu 
 lic: Checkout 1 hspice 
 lic: License/Maintenance for hspice will expire on 11-aug-2014/2013.03 
 lic: 3(in_use)/50(total) FLOATING license(s) on SERVER license.eecs.oregonstate
 lic:   
 Init: read install configuration file: /usr/local/apps/synopsys/current_hspice/hspice/meta.cfg
1****** HSPICE -- F-2011.09-SP2 32-BIT (Feb 27 2012) linux ******               
 ******  
 .title nmos

  ******  mos   model parameters tnom=  25.000 temp=  25.000 *****
 ***************************************************************************
 ***        model parameters  model name:   0:n_18     model type:nmos   ***
 ***************************************************************************

   *** general parameters ***
    deriv=   0.           

   ***  level 49  model parameters  ***

      hspver=    2006.03               level=         49         
     version=        3.1            paramchk=          0         
      apwarn=          1                lite=          0         
      vgslim=          0             binUnit=          1         
      capMod=          2               xpart=        0.5         
      mobMod=          1              nqsMod=          0         
      stiMod=          0                 elm=          5         
    sfvtflag=          0                 tox=    4.1e-09 meter   
          xj=      1e-07 meter       binflag=          0         
        lmin=          0 meter          lmax=          0 meter   
        wmin=          0 meter          wmax=          0 meter   
        lref=          0 meter          wref=          0 meter   
        lint=7.65986e-09 meter          wint=          0 meter   
       lmult=          1               wmult=          1         
          ll=          0                 lln=          1         
          lw=          0                 lwn=          1         
         lwl=          0                  wl=          0         
         wln=          1                  ww=          0         
         wwn=          1                 wwl=          0         
         dwg=-1.17694e-08 m/V             dwb=1.96583e-08 m/V^1/2 
          xl=          0                  xw=     -1e-08         
          a0=          2                 ags=   0.428182 V^-1    
          b0=-4.43566e-09 meter            b1=     -1e-07 meter   
        keta=-0.00873409 V^-1           voff= -0.0909514 V       
       ngate=          0 cm^-3           vbx=          0 V       
         vbm=         -3 V                xt=   1.55e-07 meter   
        vth0=   0.376033 V               nch= 2.3549e+17 cm^-3   
        nsub=      6e+16 cm^-3           nlx=1.83658e-07 meter   
      gamma1=          0 V^-1/2       gamma2=          0 V^-1/2  
          k1=   0.598252 V^1/2            k2= 0.00204285         
          k3=      0.001                 k3b=    5.47338 V^-1    
          w0=      1e-07 meter          dvt0=    1.38283         
        dvt1=   0.374633                dvt2=  0.0524724 V^-1    
       dvt0w=          0 meter^-1      dvt1w=          0 meter^-1
       dvt2w=          0 V^-1           dsub= 0.00880778         
        eta0=  0.0029649                etab=9.02839e-05 V^-1    
          u0=    265.099 cm^2/V/sec         ua=-1.34288e-09 m/V     
          ub=2.21876e-18 (m/V)^2          uc=5.30227e-11 V^-1    
        vsat=      99674 m/sec            a1=0.000117788 v^-1    
          a2=          1               delta=       0.01 V       
        rdsw=        150 ohm-um         prwg=        0.5 V^-1    
        prwb=       -0.2 V^-1/2           wr=          1         
        pclm=   0.739383             pdiblc1=   0.240506         
     pdiblc2= 0.00238467             pdiblcb=       -0.1 V^-1    
      pscbe1=2.25061e+09 V/m          pscbe2=5.50405e-09 V/m     
       drout=   0.810147                pvag= 0.00820885         
     nfactor=    2.47421                cdsc=    0.00024 f/m^2   
       cdscb=          0 f/V/m^2       cdscd=          0 f/V/m^2 
         cit=          0 f/m^2        alpha0=          0 m/V     
       beta0=         30 V               dlc=7.65986e-09 meter   
         dwc=          0 meter           clc=      1e-07 meter   
         cle=        0.6                cgso=   7.68e-10 f/m     
        cgdo=   7.68e-10 f/m            cgbo=      1e-12 f/m     
        cgsl=          0 f/m            cgdl=          0 f/m     
      ckappa=        0.6                  cf=          0 f/m     
        tnom=     300.15 K               kt1=      -0.11 V       
        kt1l=          0                 kt2=      0.022         
         ute=       -1.5                 ua1=   4.31e-09 m/V     
         ub1=  -7.61e-18 (m/V)^2         uc1=   -5.6e-11 m/V^2   
          at=      33000 m/s             prt=          0         
         using Berkeley noise model       noiMod=          1         
        noia=      1e+20                noib=      50000         
        noic=   -1.4e-12                  em=    4.1e+07         
          ef=          1                  af=          1         
          kf=          0              gdsnoi=-1.23457e-29         
         using Hspice diodes            using ACM 
         acm=         0                 hdif=         0 meter    
        ldif=         0 meter             js=         0 amp/m^2  
         jsw=         0 amp/m            xti=         0          
           n=         1                   cj=0.00096236 f/m^2    
          mj=  0.380501                   pb=       0.8 V        
        cjsw=2.37186e-10 f/m             mjsw=  0.107791          
         php=       0.8 V               pbsw (not used)           
      cjgate=2.37186e-10 f/m            cjswg (not used)           
       mjswg (not used)                 pbswg (not used)           
       lketa=-0.00944713               wketa= 0.00500085         
       pketa=-0.00308008               pvth0=-0.000919017         
         pk2=0.000320258               peta0=9.33065e-05         
         pu0=    32.7094                 pua=1.35883e-10         
       pvsat=    2004.06               prdsw=         -5         
 

  
      
 *****************************************************************
 ******  option summary
 ******
 runlvl  = 3         bypass  = 2         
1****** HSPICE -- F-2011.09-SP2 32-BIT (Feb 27 2012) linux ******               
 ******  
 .title nmos

  ******  operating point information tnom=  25.000 temp=  25.000 *****
 ***** operating point status is all       simulation time is     0.     
    node    =voltage      node    =voltage      node    =voltage

 +0:drain   =   1.2209  0:gate    = 600.0000m 0:vdd     =   1.8000 
 +0:vin1    = 600.0000m


 **** voltage sources

 subckt                        
 element  0:vddx     0:vin1x   
  volts      1.8000   600.0000m
  current -579.1497u    0.     
  power      1.0425m    0.     

     total voltage source power dissipation=    1.0425m       watts



 **** resistors

 subckt                        
 element  0:r1       0:r2      
  r value    1.0000k    1.0000k
  v drop     0.      -579.1497m
  current    0.      -579.1497u
  power      0.       335.4144u



 **** mosfets


 subckt             
 element  0:m1      
 model    0:n_18    
 region     Saturati
  id       579.1497u
  ibs        0.     
  ibd        0.     
  vgs      600.0000m
  vds        1.2209 
  vbs        0.     
  vth      488.9891m
  vdsat     99.9223m
  vod      111.0109m
  beta      92.6323m
  gam eff  594.4119m
  gm         8.3567m
  gds      174.6708u
  gmb        2.0782m
  cdtot     96.1583f
  cgtot    169.4930f
  cstot    147.6539f
  cbtot    138.8192f
  cgs      115.7595f
  cgd       45.4229f



 ***************************************************
   ******   pole/zero analysis  
  
  
    input =  0:vin1x          output = v(drain)
  
       poles (rad/sec)                 poles ( hertz)
 real            imag            real            imag            
 -765.097x       0.              -121.769x       0.              
 -8.41944g       0.              -1.34000g       0.              
  
       zeros (rad/sec)                 zeros ( hertz)
 real            imag            real            imag            
 110.450g        0.              17.5787g        0.              
  
  ***** constant factor = 4.14907x
 ******  
 .title nmos

  ******  ac analysis tnom=  25.000 temp=  25.000 *****
x

        freq    volt db    
                   drain   
    1.00000k     11.0218   
    1.02329k     11.0218   
    1.04713k     11.0218   
    1.07152k     11.0218   
    1.09648k     11.0218   
    1.12202k     11.0218   
    1.14815k     11.0218   
    1.17490k     11.0218   
    1.20226k     11.0218   
    1.23027k     11.0218   
    1.25893k     11.0218   
    1.28825k     11.0218   
    1.31826k     11.0218   
    1.34896k     11.0218   
    1.38038k     11.0218   
    1.41254k     11.0218   
    1.44544k     11.0218   
    1.47911k     11.0218   
    1.51356k     11.0218   
    1.54882k     11.0218   
    1.58489k     11.0218   
    1.62181k     11.0218   
    1.65959k     11.0218   
    1.69824k     11.0218   
    1.73780k     11.0218   
    1.77828k     11.0218   
    1.81970k     11.0218   
    1.86209k     11.0218   
    1.90546k     11.0218   
    1.94984k     11.0218   
    1.99526k     11.0218   
    2.04174k     11.0218   
    2.08930k     11.0218   
    2.13796k     11.0218   
    2.18776k     11.0218   
    2.23872k     11.0218   
    2.29087k     11.0218   
    2.34423k     11.0218   
    2.39883k     11.0218   
    2.45471k     11.0218   
    2.51189k     11.0218   
    2.57040k     11.0218   
    2.63027k     11.0218   
    2.69153k     11.0218   
    2.75423k     11.0218   
    2.81838k     11.0218   
    2.88403k     11.0218   
    2.95121k     11.0218   
    3.01995k     11.0218   
    3.09030k     11.0218   
    3.16228k     11.0218   
    3.23594k     11.0218   
    3.31131k     11.0218   
    3.38844k     11.0218   
    3.46737k     11.0218   
    3.54813k     11.0218   
    3.63078k     11.0218   
    3.71535k     11.0218   
    3.80189k     11.0218   
    3.89045k     11.0218   
    3.98107k     11.0218   
    4.07380k     11.0218   
    4.16869k     11.0218   
    4.26580k     11.0218   
    4.36516k     11.0218   
    4.46684k     11.0218   
    4.57088k     11.0218   
    4.67735k     11.0218   
    4.78630k     11.0218   
    4.89779k     11.0218   
    5.01187k     11.0218   
    5.12861k     11.0218   
    5.24807k     11.0218   
    5.37032k     11.0218   
    5.49541k     11.0218   
    5.62341k     11.0218   
    5.75440k     11.0218   
    5.88844k     11.0218   
    6.02560k     11.0218   
    6.16595k     11.0218   
    6.30957k     11.0218   
    6.45654k     11.0218   
    6.60693k     11.0218   
    6.76083k     11.0218   
    6.91831k     11.0218   
    7.07946k     11.0218   
    7.24436k     11.0218   
    7.41310k     11.0218   
    7.58578k     11.0218   
    7.76247k     11.0218   
    7.94328k     11.0218   
    8.12831k     11.0218   
    8.31764k     11.0218   
    8.51138k     11.0218   
    8.70964k     11.0218   
    8.91251k     11.0218   
    9.12011k     11.0218   
    9.33254k     11.0218   
    9.54993k     11.0218   
    9.77237k     11.0218   
   10.00000k     11.0218   
   10.23293k     11.0218   
   10.47129k     11.0218   
   10.71519k     11.0218   
   10.96478k     11.0218   
   11.22018k     11.0218   
   11.48154k     11.0218   
   11.74898k     11.0218   
   12.02264k     11.0218   
   12.30269k     11.0218   
   12.58925k     11.0218   
   12.88250k     11.0218   
   13.18257k     11.0218   
   13.48963k     11.0218   
   13.80384k     11.0218   
   14.12538k     11.0218   
   14.45440k     11.0218   
   14.79108k     11.0218   
   15.13561k     11.0218   
   15.48817k     11.0218   
   15.84893k     11.0218   
   16.21810k     11.0218   
   16.59587k     11.0218   
   16.98244k     11.0218   
   17.37801k     11.0218   
   17.78279k     11.0218   
   18.19701k     11.0218   
   18.62087k     11.0218   
   19.05461k     11.0218   
   19.49845k     11.0218   
   19.95262k     11.0218   
   20.41738k     11.0218   
   20.89296k     11.0218   
   21.37962k     11.0218   
   21.87762k     11.0218   
   22.38721k     11.0218   
   22.90868k     11.0218   
   23.44229k     11.0218   
   23.98833k     11.0218   
   24.54709k     11.0218   
   25.11886k     11.0218   
   25.70396k     11.0218   
   26.30268k     11.0218   
   26.91535k     11.0218   
   27.54229k     11.0218   
   28.18383k     11.0218   
   28.84032k     11.0218   
   29.51209k     11.0218   
   30.19952k     11.0218   
   30.90295k     11.0218   
   31.62278k     11.0218   
   32.35937k     11.0218   
   33.11311k     11.0218   
   33.88442k     11.0218   
   34.67369k     11.0218   
   35.48134k     11.0218   
   36.30781k     11.0218   
   37.15352k     11.0218   
   38.01894k     11.0218   
   38.90451k     11.0218   
   39.81072k     11.0218   
   40.73803k     11.0218   
   41.68694k     11.0218   
   42.65795k     11.0218   
   43.65158k     11.0218   
   44.66836k     11.0218   
   45.70882k     11.0218   
   46.77351k     11.0218   
   47.86301k     11.0218   
   48.97788k     11.0218   
   50.11872k     11.0218   
   51.28614k     11.0218   
   52.48075k     11.0218   
   53.70318k     11.0218   
   54.95409k     11.0218   
   56.23413k     11.0218   
   57.54399k     11.0218   
   58.88437k     11.0218   
   60.25596k     11.0218   
   61.65950k     11.0218   
   63.09573k     11.0218   
   64.56542k     11.0218   
   66.06934k     11.0218   
   67.60830k     11.0218   
   69.18310k     11.0218   
   70.79458k     11.0218   
   72.44360k     11.0218   
   74.13102k     11.0218   
   75.85776k     11.0218   
   77.62471k     11.0218   
   79.43282k     11.0218   
   81.28305k     11.0218   
   83.17638k     11.0218   
   85.11380k     11.0218   
   87.09636k     11.0218   
   89.12509k     11.0218   
   91.20108k     11.0218   
   93.32543k     11.0218   
   95.49926k     11.0218   
   97.72372k     11.0218   
  100.00000k     11.0218   
  102.32930k     11.0218   
  104.71285k     11.0218   
  107.15193k     11.0217   
  109.64782k     11.0217   
  112.20185k     11.0217   
  114.81536k     11.0217   
  117.48976k     11.0217   
  120.22644k     11.0217   
  123.02688k     11.0217   
  125.89254k     11.0217   
  128.82496k     11.0217   
  131.82567k     11.0217   
  134.89629k     11.0217   
  138.03843k     11.0217   
  141.25375k     11.0217   
  144.54398k     11.0217   
  147.91084k     11.0217   
  151.35612k     11.0217   
  154.88166k     11.0217   
  158.48932k     11.0217   
  162.18101k     11.0217   
  165.95869k     11.0217   
  169.82437k     11.0217   
  173.78008k     11.0217   
  177.82794k     11.0217   
  181.97009k     11.0217   
  186.20871k     11.0217   
  190.54607k     11.0217   
  194.98446k     11.0217   
  199.52623k     11.0217   
  204.17379k     11.0217   
  208.92961k     11.0217   
  213.79621k     11.0217   
  218.77616k     11.0217   
  223.87211k     11.0217   
  229.08677k     11.0217   
  234.42288k     11.0217   
  239.88329k     11.0217   
  245.47089k     11.0217   
  251.18864k     11.0217   
  257.03958k     11.0217   
  263.02680k     11.0217   
  269.15348k     11.0217   
  275.42287k     11.0217   
  281.83829k     11.0217   
  288.40315k     11.0217   
  295.12092k     11.0217   
  301.99517k     11.0217   
  309.02954k     11.0217   
  316.22777k     11.0217   
  323.59366k     11.0217   
  331.13112k     11.0217   
  338.84416k     11.0217   
  346.73685k     11.0217   
  354.81339k     11.0217   
  363.07805k     11.0217   
  371.53523k     11.0217   
  380.18940k     11.0217   
  389.04514k     11.0217   
  398.10717k     11.0217   
  407.38028k     11.0217   
  416.86938k     11.0217   
  426.57952k     11.0217   
  436.51583k     11.0217   
  446.68359k     11.0217   
  457.08819k     11.0217   
  467.73514k     11.0217   
  478.63009k     11.0217   
  489.77882k     11.0217   
  501.18723k     11.0217   
  512.86138k     11.0217   
  524.80746k     11.0217   
  537.03180k     11.0217   
  549.54087k     11.0217   
  562.34133k     11.0217   
  575.43994k     11.0217   
  588.84366k     11.0217   
  602.55959k     11.0216   
  616.59500k     11.0216   
  630.95734k     11.0216   
  645.65423k     11.0216   
  660.69345k     11.0216   
  676.08298k     11.0216   
  691.83097k     11.0216   
  707.94578k     11.0216   
  724.43596k     11.0216   
  741.31024k     11.0216   
  758.57758k     11.0216   
  776.24712k     11.0216   
  794.32823k     11.0216   
  812.83052k     11.0216   
  831.76377k     11.0215   
  851.13804k     11.0215   
  870.96359k     11.0215   
  891.25094k     11.0215   
  912.01084k     11.0215   
  933.25430k     11.0215   
  954.99259k     11.0215   
  977.23722k     11.0215   
    1.00000x     11.0215   
    1.02329x     11.0214   
    1.04713x     11.0214   
    1.07152x     11.0214   
    1.09648x     11.0214   
    1.12202x     11.0214   
    1.14815x     11.0214   
    1.17490x     11.0213   
    1.20226x     11.0213   
    1.23027x     11.0213   
    1.25893x     11.0213   
    1.28825x     11.0213   
    1.31826x     11.0212   
    1.34896x     11.0212   
    1.38038x     11.0212   
    1.41254x     11.0212   
    1.44544x     11.0211   
    1.47911x     11.0211   
    1.51356x     11.0211   
    1.54882x     11.0210   
    1.58489x     11.0210   
    1.62181x     11.0210   
    1.65959x     11.0209   
    1.69824x     11.0209   
    1.73780x     11.0209   
    1.77828x     11.0208   
    1.81970x     11.0208   
    1.86209x     11.0207   
    1.90546x     11.0207   
    1.94984x     11.0206   
    1.99526x     11.0206   
    2.04174x     11.0205   
    2.08930x     11.0205   
    2.13796x     11.0204   
    2.18776x     11.0203   
    2.23872x     11.0203   
    2.29087x     11.0202   
    2.34423x     11.0201   
    2.39883x     11.0201   
    2.45471x     11.0200   
    2.51189x     11.0199   
    2.57040x     11.0198   
    2.63027x     11.0197   
    2.69153x     11.0196   
    2.75423x     11.0195   
    2.81838x     11.0194   
    2.88403x     11.0193   
    2.95121x     11.0192   
    3.01995x     11.0191   
    3.09030x     11.0189   
    3.16228x     11.0188   
    3.23594x     11.0187   
    3.31131x     11.0185   
    3.38844x     11.0184   
    3.46737x     11.0182   
    3.54813x     11.0180   
    3.63078x     11.0179   
    3.71535x     11.0177   
    3.80189x     11.0175   
    3.89045x     11.0173   
    3.98107x     11.0171   
    4.07380x     11.0169   
    4.16869x     11.0166   
    4.26580x     11.0164   
    4.36516x     11.0161   
    4.46684x     11.0159   
    4.57088x     11.0156   
    4.67735x     11.0153   
    4.78630x     11.0150   
    4.89779x     11.0147   
    5.01187x     11.0143   
    5.12861x     11.0140   
    5.24807x     11.0136   
    5.37032x     11.0132   
    5.49541x     11.0128   
    5.62341x     11.0124   
    5.75440x     11.0120   
    5.88844x     11.0115   
    6.02560x     11.0110   
    6.16595x     11.0105   
    6.30957x     11.0100   
    6.45654x     11.0095   
